Using: /cad/synopsys/Hspice/G-2012.06/hspice/linux/hspice gummel_nmos.sp
 ****** HSPICE -- G-2012.06 32-BIT (May 27 2012) RHEL32 ******                  
  Copyright (C) 2012 Synopsys, Inc. All Rights Reserved.                        
  Unpublished-rights reserved under US copyright laws.
  This program is protected by law and is subject to the
  terms and conditions of the license agreement from Synopsys.
  Use of this program is your acceptance to be bound by the
  license agreement. HSPICE is the trademark of Synopsys, Inc.
  Input File: gummel_nmos.sp                                                    
  Command line options: gummel_nmos.sp
 lic:  
 lic: FLEXlm: v10.8 
 lic: USER:   agarwalh             HOSTNAME: xcel1.vlsi.iitk.ac.in 
 lic: HOSTID: 0008a1953eea         PID:      18400 
 lic: Using FLEXlm license file: 
 lic: 27000@xcel0 
 lic: Checkout 1 hspice 
 lic: License/Maintenance for hspice will expire on 15-jun-2014/2013.03 
 lic: 1(in_use)/5(total) FLOATING license(s) on SERVER xcel0 
 lic:   
 Init: read install configuration file: /cad/synopsys/Hspice/G-2012.06/hspice/meta.cfg


 --------------------------------------------------------
|                                                        |
|          Synopsys Unified Verilog-A (pVA v2.0)         |
|                                                        |
|           Machine Name: xcel1.vlsi.iitk.ac.in          |
| Copyright (c) 2011 Synopsys Inc., All Rights Reserved. |
|                                                        |
 --------------------------------------------------------

libepva built by pvamgr synmake_pva_build  on Tue May  1 20:03:16 PDT 2012
HSP_HOME:   /cad/synopsys/Hspice/G-2012.06/hspice
HSP_ARCH:   linux
HSP_GCC :   /cad/synopsys/Hspice/G-2012.06/hspice/GNU/amd64/gcc-4.5.2-static/bin/gcc -m32 
HSP_GCC_VER:   4.5.2
Working-Dir: /users/phd/agarwalh/synopsys_designs/BSIM6/Release_test/bsim6.1.1/bsim6.1.1
Args:        -p hsp -t spi -f gummel_nmos.pvadir/pvaHDL.lis -o gummel_nmos.pvadir 


Begin of pVA compiling on Wed Mar 19 15:38:19 2014

Parsing './bsim6.va'
Parsing include file '/cad/synopsys/Hspice/G-2012.06/hspice/include/constants.vams'
Parsing include file '/cad/synopsys/Hspice/G-2012.06/hspice/include/disciplines.vams'

End of pVA compiling on Wed Mar 19 15:38:20 2014


End of build pVA DB on Wed Mar 19 15:38:20 2014

*pvaI* Module (bsim6): 4 unexpanded port, 0 init, 2370 behav, 64 contrib, 43/2409 expr(s)
*pvaI* Resizing DB size for v count = 1
*pvaI*        Has DIS (ST SB), 3 afCount
*pvaI*        0 const-G and 0 const-C, Has switch branch.
*pvaI* Module (bsim6): generated 7 flow node(s) during compilation.

End of pVA genC on Wed Mar 19 15:38:23 2014

*pvaI* #### Total 316 line-size(s), 43 expr(s), 64 contr(s), 0 init(s), 2370 behav(s), 4 port(s)

Generating gummel_nmos.pvadir/pvaRTL_linux.so


End of submitting pVA gummel_nmos.pvadir/pvaRTL.mak on Wed Mar 19 15:38:33 2014


End of pVA elaboration on Wed Mar 19 15:38:33 2014

 Loading pVA library gummel_nmos.pvadir/pvaRTL_linux.so...
1****** HSPICE -- G-2012.06 32-BIT (May 27 2012) RHEL32 ******                  
 ******  
 *sample netlist for bsim6

  ******  circuit name directory
 circuit number to circuit name directory
   number circuitname                     definition         multiplier
        0 main circuit
        1 x1.                             bsim6(va)          1.00 
*pvaI* Creating Verilog-A module 'bsim6' for X1
  
      
 *****************************************************************
 ******  option summary
 ******
 runlvl  = 3         bypass  = 2         
  Opening plot unit= 15
 file=gummel_nmos.pa0                                                          

 ******  
 *sample netlist for bsim6

  ******  dc transfer curves tnom=  25.000 temp=  25.000 *****

   *** source        0:vgate =    0.            ***

x

        volt    param        param        param        param      
                    ids          gx           gx2          gx3    
   -0.10000    -2.240e-07      0.           0.           0.       
 -9.9000e-02   -2.171e-07   -2.240e-04      0.           0.       
 -9.8000e-02   -2.104e-07    6.895e-06     -0.2240       0.       
 -9.7000e-02   -2.038e-07    6.704e-06      0.2309    -223.9596   
 -9.6000e-02   -1.975e-07    6.517e-06   -1.911e-04    454.8145   
 -9.5000e-02   -1.914e-07    6.334e-06   -1.870e-04   -231.0459   
 -9.4000e-02   -1.854e-07    6.156e-06   -1.828e-04    4.079e-03  
 -9.3000e-02   -1.796e-07    5.981e-06   -1.787e-04    4.192e-03  
 -9.2000e-02   -1.739e-07    5.810e-06   -1.748e-04    4.093e-03  
 -9.1000e-02   -1.684e-07    5.644e-06   -1.707e-04    3.965e-03  
 -9.0000e-02   -1.631e-07    5.481e-06   -1.667e-04    4.079e-03  
 -8.9000e-02   -1.579e-07    5.322e-06   -1.627e-04    3.993e-03  
 -8.8000e-02   -1.529e-07    5.167e-06   -1.588e-04    3.936e-03  
 -8.7000e-02   -1.481e-07    5.016e-06   -1.550e-04    3.894e-03  
 -8.6000e-02   -1.433e-07    4.868e-06   -1.512e-04    3.823e-03  
 -8.5000e-02   -1.388e-07    4.725e-06   -1.474e-04    3.865e-03  
 -8.4000e-02   -1.343e-07    4.585e-06   -1.437e-04    3.794e-03  
 -8.3000e-02   -1.300e-07    4.448e-06   -1.400e-04    3.709e-03  
 -8.2000e-02   -1.258e-07    4.316e-06   -1.363e-04    3.681e-03  
 -8.1000e-02   -1.217e-07    4.186e-06   -1.328e-04    3.638e-03  
 -8.0000e-02   -1.178e-07    4.061e-06   -1.292e-04    3.567e-03  
 -7.9000e-02   -1.140e-07    3.938e-06   -1.257e-04    3.539e-03  
 -7.8000e-02   -1.103e-07    3.819e-06   -1.223e-04    3.496e-03  
 -7.7000e-02   -1.067e-07    3.704e-06   -1.190e-04    3.396e-03  
 -7.6000e-02   -1.032e-07    3.591e-06   -1.157e-04    3.340e-03  
 -7.5000e-02   -9.983e-08    3.482e-06   -1.124e-04    3.325e-03  
 -7.4000e-02   -9.656e-08    3.376e-06   -1.093e-04    3.240e-03  
 -7.3000e-02   -9.339e-08    3.273e-06   -1.062e-04    3.183e-03  
 -7.2000e-02   -9.031e-08    3.173e-06   -1.031e-04    3.098e-03  
 -7.1000e-02   -8.733e-08    3.075e-06   -1.001e-04    3.055e-03  
 -7.0000e-02   -8.444e-08    2.981e-06   -9.719e-05    2.984e-03  
 -6.9000e-02   -8.164e-08    2.890e-06   -9.430e-05    2.927e-03  
 -6.8000e-02   -7.893e-08    2.801e-06   -9.156e-05    2.885e-03  
 -6.7000e-02   -7.630e-08    2.715e-06   -8.880e-05    2.743e-03  
 -6.6000e-02   -7.375e-08    2.631e-06   -8.616e-05    2.757e-03  
 -6.5000e-02   -7.127e-08    2.550e-06   -8.362e-05    2.643e-03  
 -6.4000e-02   -6.888e-08    2.471e-06   -8.099e-05    2.544e-03  
 -6.3000e-02   -6.656e-08    2.395e-06   -7.859e-05    2.629e-03  
 -6.2000e-02   -6.431e-08    2.321e-06   -7.618e-05    2.402e-03  
 -6.1000e-02   -6.213e-08    2.250e-06   -7.383e-05    2.409e-03  
 -6.0000e-02   -6.001e-08    2.180e-06   -7.157e-05    2.352e-03  
 -5.9000e-02   -5.797e-08    2.113e-06   -6.933e-05    2.260e-03  
 -5.8000e-02   -5.598e-08    2.048e-06   -6.720e-05    2.238e-03  
 -5.7000e-02   -5.406e-08    1.985e-06   -6.509e-05    2.132e-03  
 -5.6000e-02   -5.219e-08    1.924e-06   -6.305e-05    2.103e-03  
 -5.5000e-02   -5.038e-08    1.865e-06   -6.105e-05    2.046e-03  
 -5.4000e-02   -4.863e-08    1.808e-06   -5.912e-05    1.997e-03  
 -5.3000e-02   -4.693e-08    1.752e-06   -5.725e-05    1.926e-03  
 -5.2000e-02   -4.529e-08    1.699e-06   -5.540e-05    1.876e-03  
 -5.1000e-02   -4.369e-08    1.647e-06   -5.363e-05    1.847e-03  
 -5.0000e-02   -4.214e-08    1.597e-06   -5.190e-05    1.769e-03  
 -4.9000e-02   -4.064e-08    1.548e-06   -5.022e-05    1.734e-03  
 -4.8000e-02   -3.918e-08    1.501e-06   -4.857e-05    1.677e-03  
 -4.7000e-02   -3.777e-08    1.456e-06   -4.697e-05    1.656e-03  
 -4.6000e-02   -3.640e-08    1.412e-06   -4.542e-05    1.592e-03  
 -4.5000e-02   -3.508e-08    1.369e-06   -4.390e-05    1.556e-03  
 -4.4000e-02   -3.379e-08    1.328e-06   -4.245e-05    1.521e-03  
 -4.3000e-02   -3.254e-08    1.289e-06   -4.100e-05    1.450e-03  
 -4.2000e-02   -3.132e-08    1.250e-06   -3.958e-05    1.450e-03  
 -4.1000e-02   -3.014e-08    1.214e-06   -3.826e-05    1.421e-03  
 -4.0000e-02   -2.900e-08    1.178e-06   -3.690e-05    1.315e-03  
 -3.9000e-02   -2.789e-08    1.144e-06   -3.561e-05    1.364e-03  
 -3.8000e-02   -2.681e-08    1.110e-06   -3.438e-05    1.286e-03  
 -3.7000e-02   -2.576e-08    1.078e-06   -3.311e-05    1.236e-03  
 -3.6000e-02   -2.475e-08    1.048e-06   -3.196e-05    1.265e-03  
 -3.5000e-02   -2.376e-08    1.018e-06   -3.075e-05    1.151e-03  
 -3.4000e-02   -2.279e-08    9.896e-07   -2.963e-05    1.208e-03  
 -3.3000e-02   -2.186e-08    9.622e-07   -2.852e-05    1.123e-03  
 -3.2000e-02   -2.095e-08    9.358e-07   -2.743e-05    1.108e-03  
 -3.1000e-02   -2.006e-08    9.105e-07   -2.638e-05    1.094e-03  
 -3.0000e-02   -1.920e-08    8.861e-07   -2.533e-05    1.052e-03  
 -2.9000e-02   -1.836e-08    8.628e-07   -2.434e-05    1.044e-03  
 -2.8000e-02   -1.754e-08    8.404e-07   -2.334e-05    9.912e-04  
 -2.7000e-02   -1.674e-08    8.190e-07   -2.239e-05    1.002e-03  
 -2.6000e-02   -1.596e-08    7.984e-07   -2.142e-05    9.521e-04  
 -2.5000e-02   -1.520e-08    7.788e-07   -2.052e-05    9.628e-04  
 -2.4000e-02   -1.446e-08    7.601e-07   -1.961e-05    9.024e-04  
 -2.3000e-02   -1.374e-08    7.423e-07   -1.873e-05    9.130e-04  
 -2.2000e-02   -1.303e-08    7.252e-07   -1.786e-05    8.811e-04  
 -2.1000e-02   -1.233e-08    7.091e-07   -1.701e-05    8.704e-04  
 -2.0000e-02   -1.165e-08    6.937e-07   -1.618e-05    8.420e-04  
 -1.9000e-02   -1.099e-08    6.791e-07   -1.537e-05    8.349e-04  
 -1.8000e-02   -1.034e-08    6.654e-07   -1.456e-05    8.136e-04  
 -1.7000e-02   -9.696e-09    6.524e-07   -1.379e-05    8.100e-04  
 -1.6000e-02   -9.067e-09    6.401e-07   -1.300e-05    7.674e-04  
 -1.5000e-02   -8.449e-09    6.286e-07   -1.225e-05    7.851e-04  
 -1.4000e-02   -7.841e-09    6.178e-07   -1.149e-05    7.532e-04  
 -1.3000e-02   -7.243e-09    6.078e-07   -1.077e-05    7.621e-04  
 -1.2000e-02   -6.653e-09    5.985e-07   -1.004e-05    7.194e-04  
 -1.1000e-02   -6.071e-09    5.899e-07   -9.322e-06    7.301e-04  
 -1.0000e-02   -5.496e-09    5.819e-07   -8.619e-06    7.159e-04  
 -9.0000e-03   -4.928e-09    5.747e-07   -7.919e-06    7.034e-04  
 -8.0000e-03   -4.366e-09    5.682e-07   -7.235e-06    6.999e-04  
 -7.0000e-03   -3.809e-09    5.623e-07   -6.551e-06    6.839e-04  
 -6.0000e-03   -3.256e-09    5.571e-07   -5.878e-06    6.839e-04  
 -5.0000e-03   -2.708e-09    5.525e-07   -5.210e-06    6.732e-04  
 -4.0000e-03   -2.162e-09    5.486e-07   -4.545e-06    6.679e-04  
 -3.0000e-03   -1.619e-09    5.454e-07   -3.890e-06    6.652e-04  
 -2.0000e-03   -1.079e-09    5.428e-07   -3.233e-06    6.546e-04  
 -1.0000e-03   -5.390e-10    5.409e-07   -2.584e-06    6.573e-04  
    0.         -1.229e-24    5.396e-07   -1.936e-06    6.493e-04  
  1.0000e-03    5.390e-10    5.390e-07   -1.288e-06    6.477e-04  
  2.0000e-03    1.079e-09    5.390e-07   -6.444e-07    6.480e-04  
  3.0000e-03    1.622e-09    5.402e-07    7.871e-08    6.436e-04  
  4.0000e-03    2.167e-09    5.424e-07    1.117e-06    7.231e-04  
  5.0000e-03    2.717e-09    5.456e-07    2.214e-06    1.038e-03  
  6.0000e-03    3.271e-09    5.497e-07    3.227e-06    1.097e-03  
  7.0000e-03    3.831e-09    5.544e-07    4.074e-06    1.013e-03  
  8.0000e-03    4.395e-09    5.595e-07    4.698e-06    8.467e-04  
  9.0000e-03    4.966e-09    5.648e-07    5.087e-06    6.239e-04  
  1.0000e-02    5.542e-09    5.703e-07    5.321e-06    3.886e-04  
  1.1000e-02    6.124e-09    5.760e-07    5.509e-06    2.345e-04  
  1.2000e-02    6.713e-09    5.821e-07    5.749e-06    1.883e-04  
  1.3000e-02    7.309e-09    5.887e-07    6.107e-06    2.398e-04  
  1.4000e-02    7.912e-09    5.960e-07    6.608e-06    3.579e-04  
  1.5000e-02    8.525e-09    6.039e-07    7.210e-06    5.009e-04  
  1.6000e-02    9.147e-09    6.125e-07    7.907e-06    6.022e-04  
  1.7000e-02    9.779e-09    6.220e-07    8.656e-06    6.963e-04  
  1.8000e-02    1.042e-08    6.322e-07    9.434e-06    7.496e-04  
  1.9000e-02    1.108e-08    6.432e-07    1.025e-05    7.780e-04  
  2.0000e-02    1.175e-08    6.551e-07    1.104e-05    8.118e-04  
  2.1000e-02    1.243e-08    6.678e-07    1.187e-05    7.923e-04  
  2.2000e-02    1.312e-08    6.813e-07    1.268e-05    8.349e-04  
  2.3000e-02    1.383e-08    6.956e-07    1.351e-05    8.029e-04  
  2.4000e-02    1.456e-08    7.108e-07    1.434e-05    8.349e-04  
  2.5000e-02    1.530e-08    7.268e-07    1.517e-05    8.242e-04  
  2.6000e-02    1.606e-08    7.437e-07    1.603e-05    8.384e-04  
  2.7000e-02    1.685e-08    7.614e-07    1.687e-05    8.527e-04  
  2.8000e-02    1.764e-08    7.801e-07    1.775e-05    8.455e-04  
  2.9000e-02    1.846e-08    7.996e-07    1.863e-05    8.740e-04  
  3.0000e-02    1.931e-08    8.201e-07    1.953e-05    8.882e-04  
  3.1000e-02    2.017e-08    8.414e-07    2.044e-05    8.988e-04  
  3.2000e-02    2.106e-08    8.638e-07    2.138e-05    9.024e-04  
  3.3000e-02    2.197e-08    8.871e-07    2.233e-05    9.450e-04  
  3.4000e-02    2.290e-08    9.113e-07    2.330e-05    9.450e-04  
  3.5000e-02    2.387e-08    9.367e-07    2.429e-05    9.770e-04  
  3.6000e-02    2.486e-08    9.630e-07    2.530e-05    9.877e-04  
  3.7000e-02    2.588e-08    9.904e-07    2.635e-05    1.013e-03  
  3.8000e-02    2.693e-08    1.019e-06    2.741e-05    1.052e-03  
  3.9000e-02    2.801e-08    1.049e-06    2.849e-05    1.059e-03  
  4.0000e-02    2.912e-08    1.079e-06    2.961e-05    1.080e-03  
  4.1000e-02    3.026e-08    1.111e-06    3.075e-05    1.116e-03  
  4.2000e-02    3.144e-08    1.144e-06    3.192e-05    1.144e-03  
  4.3000e-02    3.265e-08    1.179e-06    3.313e-05    1.172e-03  
  4.4000e-02    3.390e-08    1.214e-06    3.433e-05    1.201e-03  
  4.5000e-02    3.519e-08    1.251e-06    3.562e-05    1.208e-03  
  4.6000e-02    3.652e-08    1.289e-06    3.691e-05    1.286e-03  
  4.7000e-02    3.789e-08    1.329e-06    3.823e-05    1.286e-03  
  4.8000e-02    3.931e-08    1.370e-06    3.961e-05    1.322e-03  
  4.9000e-02    4.076e-08    1.412e-06    4.097e-05    1.386e-03  
  5.0000e-02    4.226e-08    1.456e-06    4.243e-05    1.357e-03  
  5.1000e-02    4.381e-08    1.502e-06    4.390e-05    1.464e-03  
  5.2000e-02    4.541e-08    1.549e-06    4.542e-05    1.471e-03  
  5.3000e-02    4.706e-08    1.597e-06    4.695e-05    1.521e-03  
  5.4000e-02    4.876e-08    1.647e-06    4.859e-05    1.528e-03  
  5.5000e-02    5.051e-08    1.699e-06    5.019e-05    1.634e-03  
  5.6000e-02    5.232e-08    1.753e-06    5.191e-05    1.606e-03  
  5.7000e-02    5.418e-08    1.808e-06    5.364e-05    1.720e-03  
  5.8000e-02    5.611e-08    1.866e-06    5.539e-05    1.727e-03  
  5.9000e-02    5.809e-08    1.925e-06    5.727e-05    1.748e-03  
  6.0000e-02    6.014e-08    1.986e-06    5.910e-05    1.883e-03  
  6.1000e-02    6.226e-08    2.049e-06    6.107e-05    1.826e-03  
  6.2000e-02    6.444e-08    2.114e-06    6.305e-05    1.975e-03  
  6.3000e-02    6.669e-08    2.181e-06    6.509e-05    1.975e-03  
  6.4000e-02    6.901e-08    2.251e-06    6.719e-05    2.039e-03  
  6.5000e-02    7.141e-08    2.322e-06    6.933e-05    2.103e-03  
  6.6000e-02    7.388e-08    2.396e-06    7.158e-05    2.139e-03  
  6.7000e-02    7.643e-08    2.472e-06    7.382e-05    2.252e-03  
  6.8000e-02    7.906e-08    2.551e-06    7.618e-05    2.238e-03  
  6.9000e-02    8.178e-08    2.632e-06    7.860e-05    2.366e-03  
  7.0000e-02    8.458e-08    2.715e-06    8.102e-05    2.416e-03  
  7.1000e-02    8.747e-08    2.801e-06    8.356e-05    2.416e-03  
  7.2000e-02    9.045e-08    2.890e-06    8.617e-05    2.544e-03  
  7.3000e-02    9.353e-08    2.982e-06    8.882e-05    2.615e-03  
  7.4000e-02    9.670e-08    3.076e-06    9.155e-05    2.643e-03  
  7.5000e-02    9.997e-08    3.173e-06    9.433e-05    2.728e-03  
  7.6000e-02    1.033e-07    3.273e-06    9.717e-05    2.785e-03  
  7.7000e-02    1.068e-07    3.377e-06    1.001e-04    2.842e-03  
  7.8000e-02    1.104e-07    3.483e-06    1.031e-04    2.956e-03  
  7.9000e-02    1.141e-07    3.592e-06    1.061e-04    2.970e-03  
  8.0000e-02    1.179e-07    3.704e-06    1.093e-04    3.027e-03  
  8.1000e-02    1.219e-07    3.820e-06    1.125e-04    3.155e-03  
  8.2000e-02    1.259e-07    3.939e-06    1.156e-04    3.183e-03  
  8.3000e-02    1.301e-07    4.061e-06    1.190e-04    3.169e-03  
  8.4000e-02    1.345e-07    4.187e-06    1.223e-04    3.396e-03  
  8.5000e-02    1.389e-07    4.316e-06    1.258e-04    3.268e-03  
  8.6000e-02    1.435e-07    4.449e-06    1.292e-04    3.496e-03  
  8.7000e-02    1.482e-07    4.586e-06    1.327e-04    3.439e-03  
  8.8000e-02    1.531e-07    4.725e-06    1.364e-04    3.510e-03  
  8.9000e-02    1.581e-07    4.869e-06    1.400e-04    3.624e-03  
  9.0000e-02    1.633e-07    5.017e-06    1.437e-04    3.595e-03  
  9.1000e-02    1.686e-07    5.168e-06    1.474e-04    3.709e-03  
  9.2000e-02    1.741e-07    5.323e-06    1.512e-04    3.709e-03  
  9.3000e-02    1.797e-07    5.482e-06    1.550e-04    3.794e-03  
  9.4000e-02    1.855e-07    5.644e-06    1.588e-04    3.809e-03  
  9.5000e-02    1.915e-07    5.811e-06    1.628e-04    3.865e-03  
  9.6000e-02    1.977e-07    5.982e-06    1.667e-04    3.922e-03  
  9.7000e-02    2.040e-07    6.156e-06    1.707e-04    3.908e-03  
  9.8000e-02    2.105e-07    6.335e-06    1.747e-04    4.036e-03  
  9.9000e-02    2.172e-07    6.518e-06    1.788e-04    3.951e-03  
    0.10000     2.241e-07    6.705e-06    1.828e-04    4.107e-03  
y
x

        volt    param      
                    gx4    
   -0.10000       0.       
 -9.9000e-02      0.       
 -9.8000e-02      0.       
 -9.7000e-02      0.       
 -9.6000e-02   -2.239e+05  
 -9.5000e-02    6.787e+05  
 -9.4000e-02   -6.858e+05  
 -9.3000e-02    2.310e+05  
 -9.2000e-02      0.1137   
 -9.1000e-02   -9.948e-02  
 -9.0000e-02     -0.1279   
 -8.9000e-02      0.1137   
 -8.8000e-02   -8.527e-02  
 -8.7000e-02   -5.684e-02  
 -8.6000e-02   -4.263e-02  
 -8.5000e-02   -7.105e-02  
 -8.4000e-02    4.263e-02  
 -8.3000e-02   -7.105e-02  
 -8.2000e-02   -8.527e-02  
 -8.1000e-02   -2.842e-02  
 -8.0000e-02   -4.263e-02  
 -7.9000e-02   -7.105e-02  
 -7.8000e-02   -2.842e-02  
 -7.7000e-02   -4.263e-02  
 -7.6000e-02   -9.948e-02  
 -7.5000e-02   -5.684e-02  
 -7.4000e-02   -1.421e-02  
 -7.3000e-02   -8.527e-02  
 -7.2000e-02   -5.684e-02  
 -7.1000e-02   -8.527e-02  
 -7.0000e-02   -4.263e-02  
 -6.9000e-02   -7.105e-02  
 -6.8000e-02   -5.684e-02  
 -6.7000e-02   -4.263e-02  
 -6.6000e-02     -0.1421   
 -6.5000e-02    1.421e-02  
 -6.4000e-02     -0.1137   
 -6.3000e-02   -9.948e-02  
 -6.2000e-02    8.527e-02  
 -6.1000e-02     -0.2274   
 -6.0000e-02    7.105e-03  
 -5.9000e-02   -5.684e-02  
 -5.8000e-02   -9.237e-02  
 -5.7000e-02   -2.132e-02  
 -5.6000e-02     -0.1066   
 -5.5000e-02   -2.842e-02  
 -5.4000e-02   -5.684e-02  
 -5.3000e-02   -4.974e-02  
 -5.2000e-02   -7.105e-02  
 -5.1000e-02   -4.974e-02  
 -5.0000e-02   -2.842e-02  
 -4.9000e-02   -7.816e-02  
 -4.8000e-02   -3.553e-02  
 -4.7000e-02   -5.684e-02  
 -4.6000e-02   -2.132e-02  
 -4.5000e-02   -6.395e-02  
 -4.4000e-02   -3.553e-02  
 -4.3000e-02   -3.553e-02  
 -4.2000e-02   -7.105e-02  
 -4.1000e-02   -1.017e-11  
 -4.0000e-02   -2.842e-02  
 -3.9000e-02     -0.1066   
 -3.8000e-02    4.974e-02  
 -3.7000e-02   -7.816e-02  
 -3.6000e-02   -4.974e-02  
 -3.5000e-02    2.842e-02  
 -3.4000e-02     -0.1137   
 -3.3000e-02    5.684e-02  
 -3.2000e-02   -8.527e-02  
 -3.1000e-02   -1.421e-02  
 -3.0000e-02   -1.421e-02  
 -2.9000e-02   -4.263e-02  
 -2.8000e-02   -7.105e-03  
 -2.7000e-02   -5.329e-02  
 -2.6000e-02    1.066e-02  
 -2.5000e-02   -4.974e-02  
 -2.4000e-02    1.066e-02  
 -2.3000e-02   -6.040e-02  
 -2.2000e-02    1.066e-02  
 -2.1000e-02   -3.197e-02  
 -2.0000e-02   -1.066e-02  
 -1.9000e-02   -2.842e-02  
 -1.8000e-02   -7.105e-03  
 -1.7000e-02   -2.132e-02  
 -1.6000e-02   -3.553e-03  
 -1.5000e-02   -4.263e-02  
 -1.4000e-02    1.776e-02  
 -1.3000e-02   -3.197e-02  
