Using: /cad/synopsys/Hspice/G-2012.06/hspice/linux/hspice idvd_pmos.sp
 ****** HSPICE -- G-2012.06 32-BIT (May 27 2012) RHEL32 ******                  
  Copyright (C) 2012 Synopsys, Inc. All Rights Reserved.                        
  Unpublished-rights reserved under US copyright laws.
  This program is protected by law and is subject to the
  terms and conditions of the license agreement from Synopsys.
  Use of this program is your acceptance to be bound by the
  license agreement. HSPICE is the trademark of Synopsys, Inc.
  Input File: idvd_pmos.sp                                                      
  Command line options: idvd_pmos.sp
 lic:  
 lic: FLEXlm: v10.8 
 lic: USER:   agarwalh             HOSTNAME: xcel1.vlsi.iitk.ac.in 
 lic: HOSTID: 0008a1953eea         PID:      17795 
 lic: Using FLEXlm license file: 
 lic: 27000@xcel0 
 lic: Checkout 1 hspice 
 lic: License/Maintenance for hspice will expire on 15-jun-2014/2013.03 
 lic: 1(in_use)/5(total) FLOATING license(s) on SERVER xcel0 
 lic:   
 Init: read install configuration file: /cad/synopsys/Hspice/G-2012.06/hspice/meta.cfg


 --------------------------------------------------------
|                                                        |
|          Synopsys Unified Verilog-A (pVA v2.0)         |
|                                                        |
|           Machine Name: xcel1.vlsi.iitk.ac.in          |
| Copyright (c) 2011 Synopsys Inc., All Rights Reserved. |
|                                                        |
 --------------------------------------------------------

libepva built by pvamgr synmake_pva_build  on Tue May  1 20:03:16 PDT 2012
HSP_HOME:   /cad/synopsys/Hspice/G-2012.06/hspice
HSP_ARCH:   linux
HSP_GCC :   /cad/synopsys/Hspice/G-2012.06/hspice/GNU/amd64/gcc-4.5.2-static/bin/gcc -m32 
HSP_GCC_VER:   4.5.2
Working-Dir: /users/phd/agarwalh/synopsys_designs/BSIM6/Release_test/bsim6.1.1/bsim6.1.1
Args:        -p hsp -t spi -f idvd_pmos.pvadir/pvaHDL.lis -o idvd_pmos.pvadir 


Begin of pVA compiling on Wed Mar 19 15:36:12 2014

Parsing './bsim6.va'
Parsing include file '/cad/synopsys/Hspice/G-2012.06/hspice/include/constants.vams'
Parsing include file '/cad/synopsys/Hspice/G-2012.06/hspice/include/disciplines.vams'

End of pVA compiling on Wed Mar 19 15:36:13 2014


End of build pVA DB on Wed Mar 19 15:36:13 2014

*pvaI* Module (bsim6): 4 unexpanded port, 0 init, 2370 behav, 64 contrib, 43/2409 expr(s)
*pvaI* Resizing DB size for v count = 1
*pvaI*        Has DIS (ST SB), 3 afCount
*pvaI*        0 const-G and 0 const-C, Has switch branch.
*pvaI* Module (bsim6): generated 7 flow node(s) during compilation.

End of pVA genC on Wed Mar 19 15:36:16 2014

*pvaI* #### Total 316 line-size(s), 43 expr(s), 64 contr(s), 0 init(s), 2370 behav(s), 4 port(s)

Generating idvd_pmos.pvadir/pvaRTL_linux.so


End of submitting pVA idvd_pmos.pvadir/pvaRTL.mak on Wed Mar 19 15:36:26 2014


End of pVA elaboration on Wed Mar 19 15:36:26 2014

 Loading pVA library idvd_pmos.pvadir/pvaRTL_linux.so...
1****** HSPICE -- G-2012.06 32-BIT (May 27 2012) RHEL32 ******                  
 ******  
 *sample netlist for bsim6

  ******  circuit name directory
 circuit number to circuit name directory
   number circuitname                     definition         multiplier
        0 main circuit
        1 x1.                             bsim6(va)          1.00 
*pvaI* Creating Verilog-A module 'bsim6' for X1
  
      
 *****************************************************************
 ******  option summary
 ******
 runlvl  = 3         bypass  = 2         
  Opening plot unit= 15
 file=idvd_pmos.pa0                                                            

 ******  
 *sample netlist for bsim6

  ******  dc transfer curves tnom=  25.000 temp=  27.000 *****

   *** source        0:vg =   -1.0000        ***

x

        volt    param        param      
                    ids          gd     
   -1.30000     5.446e-05      0.       
   -1.29000     5.430e-05    5.446e-03  
   -1.28000     5.415e-05   -1.547e-05  
   -1.27000     5.400e-05   -1.530e-05  
   -1.26000     5.385e-05   -1.512e-05  
   -1.25000     5.370e-05   -1.494e-05  
   -1.24000     5.355e-05   -1.476e-05  
   -1.23000     5.341e-05   -1.457e-05  
   -1.22000     5.327e-05   -1.438e-05  
   -1.21000     5.313e-05   -1.418e-05  
   -1.20000     5.299e-05   -1.398e-05  
   -1.19000     5.286e-05   -1.377e-05  
   -1.18000     5.272e-05   -1.356e-05  
   -1.17000     5.259e-05   -1.334e-05  
   -1.16000     5.246e-05   -1.312e-05  
   -1.15000     5.234e-05   -1.289e-05  
   -1.14000     5.221e-05   -1.266e-05  
   -1.13000     5.209e-05   -1.243e-05  
   -1.12000     5.197e-05   -1.219e-05  
   -1.11000     5.185e-05   -1.194e-05  
   -1.10000     5.174e-05   -1.170e-05  
   -1.09000     5.163e-05   -1.145e-05  
   -1.08000     5.152e-05   -1.119e-05  
   -1.07000     5.141e-05   -1.093e-05  
   -1.06000     5.131e-05   -1.067e-05  
   -1.05000     5.121e-05   -1.041e-05  
   -1.04000     5.111e-05   -1.015e-05  
   -1.03000     5.101e-05   -9.878e-06  
   -1.02000     5.092e-05   -9.609e-06  
   -1.01000     5.083e-05   -9.339e-06  
   -1.00000     5.074e-05   -9.069e-06  
   -0.99000     5.065e-05   -8.798e-06  
   -0.98000     5.057e-05   -8.527e-06  
   -0.97000     5.049e-05   -8.257e-06  
   -0.96000     5.041e-05   -7.989e-06  
   -0.95000     5.034e-05   -7.724e-06  
   -0.94000     5.027e-05   -7.462e-06  
   -0.93000     5.020e-05   -7.205e-06  
   -0.92000     5.013e-05   -6.954e-06  
   -0.91000     5.007e-05   -6.711e-06  
   -0.90000     5.000e-05   -6.477e-06  
   -0.89000     4.994e-05   -6.256e-06  
   -0.88000     4.988e-05   -6.049e-06  
   -0.87000     4.983e-05   -5.861e-06  
   -0.86000     4.977e-05   -5.696e-06  
   -0.85000     4.972e-05   -5.559e-06  
   -0.84000     4.966e-05   -5.457e-06  
   -0.83000     4.961e-05   -5.395e-06  
   -0.82000     4.955e-05   -5.382e-06  
   -0.81000     4.950e-05   -5.427e-06  
   -0.80000     4.944e-05   -5.538e-06  
   -0.79000     4.938e-05   -5.724e-06  
   -0.78000     4.932e-05   -5.992e-06  
   -0.77000     4.925e-05   -6.350e-06  
   -0.76000     4.918e-05   -6.803e-06  
   -0.75000     4.910e-05   -7.354e-06  
   -0.74000     4.901e-05   -8.004e-06  
   -0.73000     4.891e-05   -8.753e-06  
   -0.72000     4.881e-05   -9.600e-06  
   -0.71000     4.869e-05   -1.054e-05  
   -0.70000     4.857e-05   -1.157e-05  
   -0.69000     4.843e-05   -1.269e-05  
   -0.68000     4.827e-05   -1.389e-05  
   -0.67000     4.811e-05   -1.516e-05  
   -0.66000     4.793e-05   -1.651e-05  
   -0.65000     4.774e-05   -1.791e-05  
   -0.64000     4.753e-05   -1.938e-05  
   -0.63000     4.730e-05   -2.090e-05  
   -0.62000     4.706e-05   -2.247e-05  
   -0.61000     4.681e-05   -2.408e-05  
   -0.60000     4.653e-05   -2.573e-05  
   -0.59000     4.624e-05   -2.741e-05  
   -0.58000     4.593e-05   -2.913e-05  
   -0.57000     4.560e-05   -3.087e-05  
   -0.56000     4.526e-05   -3.263e-05  
   -0.55000     4.490e-05   -3.441e-05  
   -0.54000     4.452e-05   -3.620e-05  
   -0.53000     4.412e-05   -3.801e-05  
   -0.52000     4.370e-05   -3.983e-05  
   -0.51000     4.327e-05   -4.165e-05  
   -0.50000     4.282e-05   -4.347e-05  
   -0.49000     4.234e-05   -4.530e-05  
   -0.48000     4.186e-05   -4.712e-05  
   -0.47000     4.135e-05   -4.894e-05  
   -0.46000     4.082e-05   -5.075e-05  
   -0.45000     4.028e-05   -5.256e-05  
   -0.44000     3.972e-05   -5.435e-05  
   -0.43000     3.914e-05   -5.614e-05  
   -0.42000     3.854e-05   -5.792e-05  
   -0.41000     3.793e-05   -5.968e-05  
   -0.40000     3.730e-05   -6.142e-05  
   -0.39000     3.665e-05   -6.316e-05  
   -0.38000     3.598e-05   -6.487e-05  
   -0.37000     3.530e-05   -6.657e-05  
   -0.36000     3.460e-05   -6.826e-05  
   -0.35000     3.388e-05   -6.992e-05  
   -0.34000     3.315e-05   -7.157e-05  
   -0.33000     3.240e-05   -7.319e-05  
   -0.32000     3.164e-05   -7.480e-05  
   -0.31000     3.086e-05   -7.639e-05  
   -0.30000     3.007e-05   -7.796e-05  
   -0.29000     2.925e-05   -7.951e-05  
   -0.28000     2.843e-05   -8.104e-05  
   -0.27000     2.759e-05   -8.255e-05  
   -0.26000     2.673e-05   -8.404e-05  
   -0.25000     2.586e-05   -8.550e-05  
   -0.24000     2.498e-05   -8.695e-05  
   -0.23000     2.408e-05   -8.838e-05  
   -0.22000     2.317e-05   -8.979e-05  
   -0.21000     2.225e-05   -9.118e-05  
   -0.20000     2.131e-05   -9.254e-05  
   -0.19000     2.035e-05   -9.389e-05  
   -0.18000     1.939e-05   -9.522e-05  
   -0.17000     1.841e-05   -9.653e-05  
   -0.16000     1.742e-05   -9.782e-05  
   -0.15000     1.642e-05   -9.909e-05  
   -0.14000     1.540e-05   -1.003e-04  
   -0.13000     1.437e-05   -1.016e-04  
   -0.12000     1.333e-05   -1.028e-04  
   -0.11000     1.228e-05   -1.040e-04  
   -0.10000     1.122e-05   -1.052e-04  
 -9.0000e-02    1.014e-05   -1.063e-04  
 -8.0000e-02    9.059e-06   -1.074e-04  
 -7.0000e-02    7.962e-06   -1.086e-04  
 -6.0000e-02    6.855e-06   -1.096e-04  
 -5.0000e-02    5.737e-06   -1.107e-04  
 -4.0000e-02    4.609e-06   -1.118e-04  
 -3.0000e-02    3.471e-06   -1.128e-04  
 -2.0000e-02    2.323e-06   -1.138e-04  
 -1.0000e-02    1.166e-06   -1.148e-04  
    0.          2.172e-20   -1.157e-04  
y
-----------------------------------------------
 ******  
 *sample netlist for bsim6

  ******  dc transfer curves tnom=  25.000 temp=  27.000 *****

   *** source        0:vg =   -0.7000        ***

x

        volt    param        param      
                    ids          gd     
   -1.30000     2.829e-05   -1.671e-20  
   -1.29000     2.820e-05    2.829e-03  
   -1.28000     2.810e-05   -9.681e-06  
   -1.27000     2.800e-05   -9.648e-06  
   -1.26000     2.791e-05   -9.613e-06  
   -1.25000     2.781e-05   -9.577e-06  
   -1.24000     2.772e-05   -9.540e-06  
   -1.23000     2.762e-05   -9.501e-06  
   -1.22000     2.753e-05   -9.460e-06  
   -1.21000     2.744e-05   -9.418e-06  
   -1.20000     2.734e-05   -9.375e-06  
   -1.19000     2.725e-05   -9.329e-06  
   -1.18000     2.716e-05   -9.282e-06  
   -1.17000     2.707e-05   -9.232e-06  
   -1.16000     2.697e-05   -9.181e-06  
   -1.15000     2.688e-05   -9.127e-06  
   -1.14000     2.679e-05   -9.072e-06  
   -1.13000     2.670e-05   -9.014e-06  
   -1.12000     2.662e-05   -8.953e-06  
   -1.11000     2.653e-05   -8.890e-06  
   -1.10000     2.644e-05   -8.825e-06  
   -1.09000     2.635e-05   -8.757e-06  
   -1.08000     2.627e-05   -8.686e-06  
   -1.07000     2.618e-05   -8.612e-06  
   -1.06000     2.610e-05   -8.535e-06  
   -1.05000     2.601e-05   -8.455e-06  
   -1.04000     2.593e-05   -8.371e-06  
   -1.03000     2.585e-05   -8.285e-06  
   -1.02000     2.577e-05   -8.194e-06  
   -1.01000     2.569e-05   -8.101e-06  
   -1.00000     2.561e-05   -8.003e-06  
   -0.99000     2.553e-05   -7.902e-06  
   -0.98000     2.545e-05   -7.798e-06  
   -0.97000     2.538e-05   -7.689e-06  
   -0.96000     2.530e-05   -7.576e-06  
   -0.95000     2.523e-05   -7.460e-06  
   -0.94000     2.516e-05   -7.339e-06  
   -0.93000     2.509e-05   -7.214e-06  
   -0.92000     2.502e-05   -7.085e-06  
   -0.91000     2.495e-05   -6.952e-06  
   -0.90000     2.488e-05   -6.815e-06  
   -0.89000     2.482e-05   -6.674e-06  
   -0.88000     2.475e-05   -6.529e-06  
   -0.87000     2.469e-05   -6.380e-06  
   -0.86000     2.463e-05   -6.228e-06  
   -0.85000     2.457e-05   -6.071e-06  
   -0.84000     2.451e-05   -5.911e-06  
   -0.83000     2.446e-05   -5.748e-06  
   -0.82000     2.440e-05   -5.582e-06  
   -0.81000     2.435e-05   -5.413e-06  
   -0.80000     2.430e-05   -5.241e-06  
   -0.79000     2.425e-05   -5.067e-06  
   -0.78000     2.420e-05   -4.891e-06  
   -0.77000     2.416e-05   -4.713e-06  
   -0.76000     2.412e-05   -4.534e-06  
   -0.75000     2.407e-05   -4.355e-06  
   -0.74000     2.403e-05   -4.175e-06  
   -0.73000     2.400e-05   -3.995e-06  
   -0.72000     2.396e-05   -3.816e-06  
   -0.71000     2.392e-05   -3.639e-06  
   -0.70000     2.389e-05   -3.463e-06  
   -0.69000     2.386e-05   -3.290e-06  
   -0.68000     2.383e-05   -3.120e-06  
   -0.67000     2.380e-05   -2.954e-06  
   -0.66000     2.378e-05   -2.794e-06  
   -0.65000     2.375e-05   -2.641e-06  
   -0.64000     2.373e-05   -2.495e-06  
   -0.63000     2.371e-05   -2.359e-06  
   -0.62000     2.368e-05   -2.236e-06  
   -0.61000     2.366e-05   -2.127e-06  
   -0.60000     2.364e-05   -2.037e-06  
   -0.59000     2.362e-05   -1.970e-06  
   -0.58000     2.361e-05   -1.932e-06  
   -0.57000     2.359e-05   -1.929e-06  
   -0.56000     2.357e-05   -1.972e-06  
   -0.55000     2.354e-05   -2.069e-06  
   -0.54000     2.352e-05   -2.234e-06  
   -0.53000     2.349e-05   -2.477e-06  
   -0.52000     2.346e-05   -2.814e-06  
   -0.51000     2.342e-05   -3.254e-06  
   -0.50000     2.337e-05   -3.810e-06  
   -0.49000     2.332e-05   -4.488e-06  
   -0.48000     2.326e-05   -5.292e-06  
   -0.47000     2.319e-05   -6.222e-06  
   -0.46000     2.310e-05   -7.277e-06  
   -0.45000     2.300e-05   -8.451e-06  
   -0.44000     2.289e-05   -9.736e-06  
   -0.43000     2.277e-05   -1.112e-05  
   -0.42000     2.263e-05   -1.261e-05  
   -0.41000     2.247e-05   -1.417e-05  
   -0.40000     2.229e-05   -1.581e-05  
   -0.39000     2.210e-05   -1.752e-05  
   -0.38000     2.189e-05   -1.928e-05  
   -0.37000     2.166e-05   -2.109e-05  
   -0.36000     2.141e-05   -2.294e-05  
   -0.35000     2.114e-05   -2.483e-05  
   -0.34000     2.086e-05   -2.674e-05  
   -0.33000     2.055e-05   -2.867e-05  
   -0.32000     2.022e-05   -3.062e-05  
   -0.31000     1.988e-05   -3.259e-05  
   -0.30000     1.951e-05   -3.456e-05  
   -0.29000     1.913e-05   -3.653e-05  
   -0.28000     1.872e-05   -3.850e-05  
   -0.27000     1.830e-05   -4.047e-05  
   -0.26000     1.786e-05   -4.244e-05  
   -0.25000     1.739e-05   -4.440e-05  
   -0.24000     1.691e-05   -4.634e-05  
   -0.23000     1.641e-05   -4.828e-05  
   -0.22000     1.589e-05   -5.020e-05  
   -0.21000     1.535e-05   -5.211e-05  
   -0.20000     1.479e-05   -5.400e-05  
   -0.19000     1.421e-05   -5.588e-05  
   -0.18000     1.361e-05   -5.773e-05  
   -0.17000     1.300e-05   -5.957e-05  
   -0.16000     1.237e-05   -6.139e-05  
   -0.15000     1.172e-05   -6.319e-05  
   -0.14000     1.105e-05   -6.497e-05  
   -0.13000     1.037e-05   -6.673e-05  
   -0.12000     9.666e-06   -6.846e-05  
   -0.11000     8.947e-06   -7.018e-05  
   -0.10000     8.212e-06   -7.187e-05  
 -9.0000e-02    7.460e-06   -7.353e-05  
 -8.0000e-02    6.692e-06   -7.518e-05  
 -7.0000e-02    5.908e-06   -7.680e-05  
 -6.0000e-02    5.108e-06   -7.839e-05  
 -5.0000e-02    4.293e-06   -7.996e-05  
 -4.0000e-02    3.463e-06   -8.151e-05  
 -3.0000e-02    2.618e-06   -8.302e-05  
 -2.0000e-02    1.759e-06   -8.449e-05  
 -1.0000e-02    8.861e-07   -8.591e-05  
    0.         -1.250e-20   -8.728e-05  
y
-----------------------------------------------
 ******  
 *sample netlist for bsim6

  ******  dc transfer curves tnom=  25.000 temp=  27.000 *****

   *** source        0:vg =   -0.4000        ***

x

        volt    param        param      
                    ids          gd     
   -1.30000     8.309e-06    9.612e-21  
   -1.29000     8.276e-06    8.309e-04  
   -1.28000     8.243e-06   -3.276e-06  
   -1.27000     8.211e-06   -3.270e-06  
   -1.26000     8.178e-06   -3.264e-06  
   -1.25000     8.146e-06   -3.258e-06  
   -1.24000     8.113e-06   -3.252e-06  
   -1.23000     8.081e-06   -3.246e-06  
   -1.22000     8.048e-06   -3.240e-06  
   -1.21000     8.016e-06   -3.234e-06  
   -1.20000     7.984e-06   -3.227e-06  
   -1.19000     7.952e-06   -3.221e-06  
   -1.18000     7.920e-06   -3.214e-06  
   -1.17000     7.888e-06   -3.207e-06  
   -1.16000     7.856e-06   -3.201e-06  
   -1.15000     7.824e-06   -3.194e-06  
   -1.14000     7.792e-06   -3.186e-06  
   -1.13000     7.760e-06   -3.179e-06  
   -1.12000     7.729e-06   -3.172e-06  
   -1.11000     7.697e-06   -3.164e-06  
   -1.10000     7.666e-06   -3.156e-06  
   -1.09000     7.634e-06   -3.148e-06  
   -1.08000     7.603e-06   -3.140e-06  
   -1.07000     7.572e-06   -3.132e-06  
   -1.06000     7.541e-06   -3.123e-06  
   -1.05000     7.509e-06   -3.114e-06  
   -1.04000     7.479e-06   -3.105e-06  
   -1.03000     7.448e-06   -3.096e-06  
   -1.02000     7.417e-06   -3.086e-06  
   -1.01000     7.386e-06   -3.076e-06  
   -1.00000     7.356e-06   -3.066e-06  
   -0.99000     7.325e-06   -3.055e-06  
   -0.98000     7.295e-06   -3.044e-06  
   -0.97000     7.265e-06   -3.032e-06  
   -0.96000     7.235e-06   -3.020e-06  
   -0.95000     7.205e-06   -3.007e-06  
   -0.94000     7.175e-06   -2.994e-06  
   -0.93000     7.145e-06   -2.981e-06  
   -0.92000     7.116e-06   -2.966e-06  
   -0.91000     7.086e-06   -2.952e-06  
   -0.90000     7.057e-06   -2.936e-06  
   -0.89000     7.028e-06   -2.920e-06  
   -0.88000     6.999e-06   -2.903e-06  
   -0.87000     6.971e-06   -2.885e-06  
   -0.86000     6.942e-06   -2.866e-06  
   -0.85000     6.914e-06   -2.846e-06  
   -0.84000     6.886e-06   -2.825e-06  
   -0.83000     6.858e-06   -2.804e-06  
   -0.82000     6.831e-06   -2.781e-06  
   -0.81000     6.803e-06   -2.757e-06  
   -0.80000     6.776e-06   -2.731e-06  
   -0.79000     6.749e-06   -2.704e-06  
   -0.78000     6.723e-06   -2.676e-06  
   -0.77000     6.697e-06   -2.646e-06  
   -0.76000     6.671e-06   -2.615e-06  
   -0.75000     6.646e-06   -2.581e-06  
   -0.74000     6.620e-06   -2.547e-06  
   -0.73000     6.596e-06   -2.510e-06  
   -0.72000     6.571e-06   -2.471e-06  
   -0.71000     6.548e-06   -2.430e-06  
   -0.70000     6.524e-06   -2.387e-06  
   -0.69000     6.501e-06   -2.342e-06  
   -0.68000     6.479e-06   -2.295e-06  
   -0.67000     6.457e-06   -2.246e-06  
   -0.66000     6.435e-06   -2.194e-06  
   -0.65000     6.415e-06   -2.139e-06  
   -0.64000     6.394e-06   -2.083e-06  
   -0.63000     6.375e-06   -2.024e-06  
   -0.62000     6.356e-06   -1.963e-06  
   -0.61000     6.337e-06   -1.900e-06  
   -0.60000     6.320e-06   -1.834e-06  
   -0.59000     6.303e-06   -1.767e-06  
   -0.58000     6.286e-06   -1.698e-06  
   -0.57000     6.271e-06   -1.627e-06  
   -0.56000     6.256e-06   -1.554e-06  
   -0.55000     6.242e-06   -1.481e-06  
   -0.54000     6.229e-06   -1.406e-06  
   -0.53000     6.216e-06   -1.331e-06  
   -0.52000     6.204e-06   -1.256e-06  
   -0.51000     6.193e-06   -1.180e-06  
   -0.50000     6.183e-06   -1.105e-06  
   -0.49000     6.173e-06   -1.031e-06  
   -0.48000     6.165e-06   -9.585e-07  
   -0.47000     6.156e-06   -8.873e-07  
   -0.46000     6.149e-06   -8.182e-07  
   -0.45000     6.142e-06   -7.516e-07  
   -0.44000     6.136e-06   -6.879e-07  
   -0.43000     6.130e-06   -6.276e-07  
   -0.42000     6.125e-06   -5.713e-07  
   -0.41000     6.120e-06   -5.194e-07  
   -0.40000     6.116e-06   -4.727e-07  
   -0.39000     6.112e-06   -4.319e-07  
   -0.38000     6.108e-06   -3.982e-07  
   -0.37000     6.104e-06   -3.729e-07  
   -0.36000     6.101e-06   -3.579e-07  
   -0.35000     6.097e-06   -3.556e-07  
   -0.34000     6.093e-06   -3.694e-07  
   -0.33000     6.088e-06   -4.038e-07  
   -0.32000     6.083e-06   -4.648e-07  
   -0.31000     6.076e-06   -5.603e-07  
   -0.30000     6.067e-06   -7.004e-07  
   -0.29000     6.055e-06   -8.974e-07  
   -0.28000     6.040e-06   -1.166e-06  
   -0.27000     6.020e-06   -1.522e-06  
   -0.26000     5.995e-06   -1.983e-06  
   -0.25000     5.962e-06   -2.564e-06  
   -0.24000     5.920e-06   -3.277e-06  
   -0.23000     5.869e-06   -4.131e-06  
   -0.22000     5.807e-06   -5.129e-06  
   -0.21000     5.731e-06   -6.266e-06  
   -0.20000     5.642e-06   -7.538e-06  
   -0.19000     5.537e-06   -8.932e-06  
   -0.18000     5.417e-06   -1.044e-05  
   -0.17000     5.280e-06   -1.204e-05  
   -0.16000     5.125e-06   -1.373e-05  
   -0.15000     4.952e-06   -1.550e-05  
