Using: /cad/synopsys/Hspice/G-2012.06/hspice/linux/hspice idvg_pmos.sp
 ****** HSPICE -- G-2012.06 32-BIT (May 27 2012) RHEL32 ******                  
  Copyright (C) 2012 Synopsys, Inc. All Rights Reserved.                        
  Unpublished-rights reserved under US copyright laws.
  This program is protected by law and is subject to the
  terms and conditions of the license agreement from Synopsys.
  Use of this program is your acceptance to be bound by the
  license agreement. HSPICE is the trademark of Synopsys, Inc.
  Input File: idvg_pmos.sp                                                      
  Command line options: idvg_pmos.sp
 lic:  
 lic: FLEXlm: v10.8 
 lic: USER:   agarwalh             HOSTNAME: xcel1.vlsi.iitk.ac.in 
 lic: HOSTID: 0008a1953eea         PID:      17759 
 lic: Using FLEXlm license file: 
 lic: 27000@xcel0 
 lic: Checkout 1 hspice 
 lic: License/Maintenance for hspice will expire on 15-jun-2014/2013.03 
 lic: 1(in_use)/5(total) FLOATING license(s) on SERVER xcel0 
 lic:   
 Init: read install configuration file: /cad/synopsys/Hspice/G-2012.06/hspice/meta.cfg


 --------------------------------------------------------
|                                                        |
|          Synopsys Unified Verilog-A (pVA v2.0)         |
|                                                        |
|           Machine Name: xcel1.vlsi.iitk.ac.in          |
| Copyright (c) 2011 Synopsys Inc., All Rights Reserved. |
|                                                        |
 --------------------------------------------------------

libepva built by pvamgr synmake_pva_build  on Tue May  1 20:03:16 PDT 2012
HSP_HOME:   /cad/synopsys/Hspice/G-2012.06/hspice
HSP_ARCH:   linux
HSP_GCC :   /cad/synopsys/Hspice/G-2012.06/hspice/GNU/amd64/gcc-4.5.2-static/bin/gcc -m32 
HSP_GCC_VER:   4.5.2
Working-Dir: /users/phd/agarwalh/synopsys_designs/BSIM6/Release_test/bsim6.1.1/bsim6.1.1
Args:        -p hsp -t spi -f idvg_pmos.pvadir/pvaHDL.lis -o idvg_pmos.pvadir 


Begin of pVA compiling on Wed Mar 19 15:35:41 2014

Parsing './bsim6.va'
Parsing include file '/cad/synopsys/Hspice/G-2012.06/hspice/include/constants.vams'
Parsing include file '/cad/synopsys/Hspice/G-2012.06/hspice/include/disciplines.vams'

End of pVA compiling on Wed Mar 19 15:35:41 2014


End of build pVA DB on Wed Mar 19 15:35:41 2014

*pvaI* Module (bsim6): 4 unexpanded port, 0 init, 2370 behav, 64 contrib, 43/2409 expr(s)
*pvaI* Resizing DB size for v count = 1
*pvaI*        Has DIS (ST SB), 3 afCount
*pvaI*        0 const-G and 0 const-C, Has switch branch.
*pvaI* Module (bsim6): generated 7 flow node(s) during compilation.

End of pVA genC on Wed Mar 19 15:35:44 2014

*pvaI* #### Total 316 line-size(s), 43 expr(s), 64 contr(s), 0 init(s), 2370 behav(s), 4 port(s)

Generating idvg_pmos.pvadir/pvaRTL_linux.so


End of submitting pVA idvg_pmos.pvadir/pvaRTL.mak on Wed Mar 19 15:35:55 2014


End of pVA elaboration on Wed Mar 19 15:35:55 2014

 Loading pVA library idvg_pmos.pvadir/pvaRTL_linux.so...
1****** HSPICE -- G-2012.06 32-BIT (May 27 2012) RHEL32 ******                  
 ******  
 *sample netlist for bsim6

  ******  circuit name directory
 circuit number to circuit name directory
   number circuitname                     definition         multiplier
        0 main circuit
        1 x1.                             bsim6(va)          1.00 
*pvaI* Creating Verilog-A module 'bsim6' for X1
  
      
 *****************************************************************
 ******  option summary
 ******
 runlvl  = 3         bypass  = 2         
  Opening plot unit= 15
 file=idvg_pmos.pa0                                                            

 ******  
 *sample netlist for bsim6

  ******  dc transfer curves tnom=  25.000 temp=  25.000 *****

   *** source        0:vb =    0.            ***

x

        volt    param        param        param      
                    ids          gm           gm2    
   -1.30000     6.734e-06      0.           0.       
   -1.29000     6.709e-06    6.734e-04      0.       
   -1.28000     6.684e-06   -2.472e-06    6.734e-02  
   -1.27000     6.658e-06   -2.511e-06   -6.758e-02  
   -1.26000     6.632e-06   -2.549e-06   -3.829e-06  
   -1.25000     6.606e-06   -2.589e-06   -3.887e-06  
   -1.24000     6.579e-06   -2.629e-06   -3.945e-06  
   -1.23000     6.552e-06   -2.670e-06   -4.004e-06  
   -1.22000     6.525e-06   -2.711e-06   -4.063e-06  
   -1.21000     6.497e-06   -2.753e-06   -4.124e-06  
   -1.20000     6.468e-06   -2.795e-06   -4.185e-06  
   -1.19000     6.440e-06   -2.838e-06   -4.247e-06  
   -1.18000     6.410e-06   -2.882e-06   -4.311e-06  
   -1.17000     6.381e-06   -2.926e-06   -4.374e-06  
   -1.16000     6.350e-06   -2.971e-06   -4.439e-06  
   -1.15000     6.320e-06   -3.017e-06   -4.505e-06  
   -1.14000     6.289e-06   -3.064e-06   -4.571e-06  
   -1.13000     6.257e-06   -3.111e-06   -4.639e-06  
   -1.12000     6.225e-06   -3.158e-06   -4.707e-06  
   -1.11000     6.193e-06   -3.207e-06   -4.777e-06  
   -1.10000     6.159e-06   -3.256e-06   -4.847e-06  
   -1.09000     6.126e-06   -3.306e-06   -4.918e-06  
   -1.08000     6.092e-06   -3.357e-06   -4.989e-06  
   -1.07000     6.057e-06   -3.408e-06   -5.062e-06  
   -1.06000     6.022e-06   -3.460e-06   -5.136e-06  
   -1.05000     5.986e-06   -3.513e-06   -5.210e-06  
   -1.04000     5.950e-06   -3.566e-06   -5.285e-06  
   -1.03000     5.913e-06   -3.621e-06   -5.361e-06  
   -1.02000     5.876e-06   -3.676e-06   -5.438e-06  
   -1.01000     5.838e-06   -3.732e-06   -5.516e-06  
   -1.00000     5.800e-06   -3.789e-06   -5.594e-06  
   -0.99000     5.761e-06   -3.846e-06   -5.673e-06  
   -0.98000     5.721e-06   -3.905e-06   -5.753e-06  
   -0.97000     5.681e-06   -3.964e-06   -5.834e-06  
   -0.96000     5.640e-06   -4.024e-06   -5.915e-06  
   -0.95000     5.599e-06   -4.084e-06   -5.997e-06  
   -0.94000     5.556e-06   -4.146e-06   -6.080e-06  
   -0.93000     5.514e-06   -4.209e-06   -6.163e-06  
   -0.92000     5.470e-06   -4.272e-06   -6.247e-06  
   -0.91000     5.426e-06   -4.336e-06   -6.330e-06  
   -0.90000     5.382e-06   -4.401e-06   -6.415e-06  
   -0.89000     5.336e-06   -4.467e-06   -6.500e-06  
   -0.88000     5.290e-06   -4.534e-06   -6.585e-06  
   -0.87000     5.244e-06   -4.601e-06   -6.671e-06  
   -0.86000     5.196e-06   -4.670e-06   -6.757e-06  
   -0.85000     5.148e-06   -4.739e-06   -6.843e-06  
   -0.84000     5.099e-06   -4.809e-06   -6.929e-06  
   -0.83000     5.050e-06   -4.880e-06   -7.015e-06  
   -0.82000     5.000e-06   -4.952e-06   -7.101e-06  
   -0.81000     4.949e-06   -5.025e-06   -7.186e-06  
   -0.80000     4.897e-06   -5.098e-06   -7.272e-06  
   -0.79000     4.844e-06   -5.173e-06   -7.356e-06  
   -0.78000     4.791e-06   -5.248e-06   -7.440e-06  
   -0.77000     4.737e-06   -5.324e-06   -7.524e-06  
   -0.76000     4.682e-06   -5.401e-06   -7.606e-06  
   -0.75000     4.627e-06   -5.478e-06   -7.687e-06  
   -0.74000     4.571e-06   -5.557e-06   -7.767e-06  
   -0.73000     4.513e-06   -5.636e-06   -7.846e-06  
   -0.72000     4.455e-06   -5.716e-06   -7.922e-06  
   -0.71000     4.397e-06   -5.797e-06   -7.997e-06  
   -0.70000     4.337e-06   -5.878e-06   -8.070e-06  
   -0.69000     4.277e-06   -5.960e-06   -8.139e-06  
   -0.68000     4.215e-06   -6.043e-06   -8.207e-06  
   -0.67000     4.153e-06   -6.126e-06   -8.271e-06  
   -0.66000     4.090e-06   -6.210e-06   -8.331e-06  
   -0.65000     4.026e-06   -6.295e-06   -8.388e-06  
   -0.64000     3.962e-06   -6.379e-06   -8.441e-06  
   -0.63000     3.896e-06   -6.465e-06   -8.489e-06  
   -0.62000     3.830e-06   -6.550e-06   -8.531e-06  
   -0.61000     3.763e-06   -6.636e-06   -8.568e-06  
   -0.60000     3.695e-06   -6.723e-06   -8.598e-06  
   -0.59000     3.626e-06   -6.809e-06   -8.621e-06  
   -0.58000     3.556e-06   -6.895e-06   -8.638e-06  
   -0.57000     3.485e-06   -6.982e-06   -8.645e-06  
   -0.56000     3.414e-06   -7.068e-06   -8.642e-06  
   -0.55000     3.341e-06   -7.154e-06   -8.631e-06  
   -0.54000     3.268e-06   -7.240e-06   -8.607e-06  
   -0.53000     3.194e-06   -7.325e-06   -8.571e-06  
   -0.52000     3.119e-06   -7.410e-06   -8.522e-06  
   -0.51000     3.043e-06   -7.494e-06   -8.458e-06  
   -0.50000     2.967e-06   -7.576e-06   -8.378e-06  
   -0.49000     2.889e-06   -7.658e-06   -8.280e-06  
   -0.48000     2.811e-06   -7.738e-06   -8.163e-06  
   -0.47000     2.732e-06   -7.817e-06   -8.023e-06  
   -0.46000     2.652e-06   -7.894e-06   -7.861e-06  
   -0.45000     2.572e-06   -7.968e-06   -7.672e-06  
   -0.44000     2.491e-06   -8.040e-06   -7.454e-06  
   -0.43000     2.409e-06   -8.109e-06   -7.205e-06  
   -0.42000     2.327e-06   -8.175e-06   -6.920e-06  
   -0.41000     2.244e-06   -8.238e-06   -6.597e-06  
   -0.40000     2.160e-06   -8.296e-06   -6.232e-06  
   -0.39000     2.076e-06   -8.349e-06   -5.818e-06  
   -0.38000     1.992e-06   -8.398e-06   -5.352e-06  
   -0.37000     1.907e-06   -8.440e-06   -4.828e-06  
   -0.36000     1.822e-06   -8.476e-06   -4.238e-06  
   -0.35000     1.737e-06   -8.504e-06   -3.576e-06  
   -0.34000     1.652e-06   -8.524e-06   -2.834e-06  
   -0.33000     1.566e-06   -8.535e-06   -2.001e-06  
   -0.32000     1.481e-06   -8.535e-06   -1.068e-06  
   -0.31000     1.396e-06   -8.524e-06   -2.302e-08  
   -0.30000     1.311e-06   -8.499e-06    1.147e-06  
   -0.29000     1.227e-06   -8.460e-06    2.459e-06  
   -0.28000     1.144e-06   -8.404e-06    3.926e-06  
   -0.27000     1.062e-06   -8.330e-06    5.568e-06  
   -0.26000     9.806e-07   -8.235e-06    7.403e-06  
   -0.25000     9.008e-07   -8.118e-06    9.453e-06  
   -0.24000     8.228e-07   -7.975e-06    1.174e-05  
   -0.23000     7.467e-07   -7.805e-06    1.427e-05  
   -0.22000     6.731e-07   -7.603e-06    1.708e-05  
   -0.21000     6.021e-07   -7.368e-06    2.015e-05  
   -0.20000     5.342e-07   -7.097e-06    2.350e-05  
   -0.19000     4.698e-07   -6.789e-06    2.707e-05  
   -0.18000     4.092e-07   -6.443e-06    3.081e-05  
   -0.17000     3.528e-07   -6.059e-06    3.463e-05  
   -0.16000     3.009e-07   -5.639e-06    3.841e-05  
   -0.15000     2.538e-07   -5.188e-06    4.197e-05  
   -0.14000     2.116e-07   -4.712e-06    4.512e-05  
   -0.13000     1.744e-07   -4.220e-06    4.761e-05  
   -0.12000     1.420e-07   -3.723e-06    4.921e-05  
   -0.11000     1.144e-07   -3.232e-06    4.972e-05  
   -0.10000     9.119e-08   -2.762e-06    4.901e-05  
 -9.0000e-02    7.198e-08   -2.322e-06    4.707e-05  
 -8.0000e-02    5.632e-08   -1.921e-06    4.401e-05  
 -7.0000e-02    4.373e-08   -1.566e-06    4.005e-05  
 -6.0000e-02    3.373e-08   -1.259e-06    3.551e-05  
 -5.0000e-02    2.588e-08   -9.998e-07    3.070e-05  
 -4.0000e-02    1.977e-08   -7.854e-07    2.593e-05  
 -3.0000e-02    1.504e-08   -6.114e-07    2.144e-05  
 -2.0000e-02    1.142e-08   -4.723e-07    1.741e-05  
 -1.0000e-02    8.647e-09   -3.626e-07    1.391e-05  
    0.          6.539e-09   -2.770e-07    1.097e-05  
  1.0000e-02    4.939e-09   -2.108e-07    8.557e-06  
  2.0000e-02    3.727e-09   -1.600e-07    6.618e-06  
  3.0000e-02    2.811e-09   -1.211e-07    5.084e-06  
  4.0000e-02    2.120e-09   -9.158e-08    3.884e-06  
  5.0000e-02    1.598e-09   -6.915e-08    2.956e-06  
  6.0000e-02    1.205e-09   -5.217e-08    2.243e-06  
  7.0000e-02    9.083e-10   -3.934e-08    1.698e-06  
  8.0000e-02    6.848e-10   -2.965e-08    1.283e-06  
  9.0000e-02    5.164e-10   -2.235e-08    9.686e-07  
    0.10000     3.895e-10   -1.684e-08    7.306e-07  
    0.11000     2.938e-10   -1.269e-08    5.507e-07  
    0.12000     2.217e-10   -9.565e-09    4.150e-07  
    0.13000     1.674e-10   -7.209e-09    3.126e-07  
    0.14000     1.264e-10   -5.436e-09    2.356e-07  
    0.15000     9.544e-11   -4.099e-09    1.774e-07  
    0.16000     7.212e-11   -3.093e-09    1.337e-07  
    0.17000     5.451e-11   -2.332e-09    1.006e-07  
    0.18000     4.121e-11   -1.761e-09    7.610e-08  
    0.19000     3.119e-11   -1.330e-09    5.713e-08  
    0.20000     2.360e-11   -1.003e-09    4.306e-08  
    0.21000     1.786e-11   -7.581e-10    3.276e-08  
    0.22000     1.355e-11   -5.741e-10    2.444e-08  
    0.23000     1.027e-11   -4.313e-10    1.840e-08  
    0.24000     7.795e-12   -3.283e-10    1.428e-08  
    0.25000     5.926e-12   -2.473e-10    1.030e-08  
    0.26000     4.491e-12   -1.869e-10    8.100e-09  
    0.27000     3.425e-12   -1.435e-10    6.040e-09  
    0.28000     2.622e-12   -1.066e-10    4.334e-09  
    0.29000     2.004e-12   -8.029e-11    3.695e-09  
    0.30000     1.521e-12   -6.182e-11    2.629e-09  
    0.31000     1.172e-12   -4.832e-11    1.847e-09  
    0.32000     9.095e-13   -3.482e-11    1.350e-09  
    0.33000     6.963e-13   -2.629e-11    1.350e-09  
    0.34000     5.400e-13   -2.132e-11    8.527e-10  
    0.35000     4.192e-13   -1.563e-11    4.974e-10  
    0.36000     3.268e-13   -1.208e-11    5.684e-10  
    0.37000     2.700e-13   -9.237e-12    3.553e-10  
    0.38000     2.203e-13   -5.684e-12    2.842e-10  
    0.39000     1.776e-13   -4.974e-12    3.553e-10  
    0.40000     1.492e-13   -4.263e-12    7.105e-11  
    0.41000     1.208e-13   -2.842e-12    7.105e-11  
    0.42000     1.066e-13   -2.842e-12    1.421e-10  
    0.43000     9.237e-14   -1.421e-12      0.       
    0.44000     7.816e-14   -1.421e-12    1.421e-10  
    0.45000     7.105e-14   -1.421e-12      0.       
    0.46000     7.105e-14   -7.105e-13      0.       
    0.47000     6.395e-14      0.         7.105e-11  
    0.48000     6.395e-14   -7.105e-13    7.105e-11  
    0.49000     5.684e-14      0.        -7.105e-11  
    0.50000     5.684e-14   -7.105e-13    7.105e-11  
    0.51000     4.974e-14      0.        -7.105e-11  
    0.52000     4.974e-14   -7.105e-13    7.105e-11  
    0.53000     4.974e-14      0.        -7.105e-11  
    0.54000     4.974e-14      0.         7.105e-11  
    0.55000     4.974e-14      0.           0.       
    0.56000     4.974e-14      0.           0.       
    0.57000     4.974e-14      0.           0.       
    0.58000     4.974e-14      0.           0.       
    0.59000     5.684e-14      0.           0.       
    0.60000     4.974e-14    7.105e-13      0.       
    0.61000     4.974e-14   -7.105e-13    7.105e-11  
    0.62000     4.974e-14      0.        -1.421e-10  
    0.63000     4.974e-14      0.         7.105e-11  
    0.64000     5.684e-14      0.           0.       
    0.65000     5.684e-14    7.105e-13      0.       
    0.66000     4.974e-14      0.         7.105e-11  
    0.67000     4.974e-14   -7.105e-13   -7.105e-11  
    0.68000     4.974e-14      0.        -7.105e-11  
    0.69000     4.974e-14      0.         7.105e-11  
    0.70000     4.974e-14      0.           0.       
    0.71000     4.974e-14      0.           0.       
    0.72000     4.974e-14      0.           0.       
    0.73000     4.974e-14      0.           0.       
    0.74000     4.974e-14      0.           0.       
    0.75000     4.974e-14      0.           0.       
    0.76000     4.974e-14      0.           0.       
    0.77000     4.974e-14      0.           0.       
    0.78000     4.974e-14      0.           0.       
    0.79000     4.974e-14      0.           0.       
    0.80000     4.974e-14      0.           0.       
    0.81000     4.974e-14      0.           0.       
    0.82000     4.974e-14      0.           0.       
    0.83000     4.974e-14      0.           0.       
    0.84000     4.974e-14      0.           0.       
    0.85000     4.974e-14      0.           0.       
    0.86000     4.974e-14      0.           0.       
    0.87000     4.974e-14      0.           0.       
    0.88000     4.974e-14      0.           0.       
    0.89000     4.974e-14      0.           0.       
    0.90000     4.974e-14      0.           0.       
    0.91000     4.974e-14      0.           0.       
    0.92000     4.974e-14      0.           0.       
    0.93000     4.974e-14      0.           0.       
    0.94000     4.974e-14      0.           0.       
    0.95000     4.974e-14      0.           0.       
    0.96000     4.974e-14      0.           0.       
    0.97000     4.974e-14      0.           0.       
    0.98000     4.974e-14      0.           0.       
    0.99000     4.974e-14      0.           0.       
    1.00000     4.974e-14      0.           0.       
    1.01000     4.974e-14      0.           0.       
    1.02000     4.974e-14      0.           0.       
    1.03000     4.974e-14      0.           0.       
    1.04000     4.974e-14      0.           0.       
    1.05000     4.974e-14      0.           0.       
    1.06000     4.974e-14      0.           0.       
    1.07000     4.974e-14      0.           0.       
    1.08000     4.974e-14      0.           0.       
    1.09000     4.974e-14      0.           0.       
    1.10000     4.974e-14      0.           0.       
    1.11000     4.974e-14      0.           0.       
    1.12000     4.974e-14      0.           0.       
    1.13000     4.974e-14      0.           0.       
    1.14000     4.974e-14      0.           0.       
    1.15000     4.974e-14      0.           0.       
    1.16000     4.974e-14      0.           0.       
    1.17000     4.974e-14      0.           0.       
    1.18000     4.974e-14      0.           0.       
    1.19000     4.974e-14      0.           0.       
    1.20000     4.974e-14      0.           0.       
    1.21000     4.974e-14      0.           0.       
    1.22000     4.974e-14      0.           0.       
    1.23000     4.974e-14      0.           0.       
    1.24000     4.974e-14      0.           0.       
    1.25000     4.974e-14      0.           0.       
    1.26000     4.974e-14      0.           0.       
    1.27000     4.974e-14      0.           0.       
    1.28000     4.974e-14      0.           0.       
    1.29000     4.974e-14      0.           0.       
    1.30000     4.974e-14      0.           0.       
y
-----------------------------------------------
 ******  
 *sample netlist for bsim6

  ******  dc transfer curves tnom=  25.000 temp=  25.000 *****

   *** source        0:vb =   -0.1000        ***

x

        volt    param        param        param      
                    ids          gm           gm2    
   -1.30000     6.807e-06   -3.826e-14      0.       
   -1.29000     6.782e-06    6.807e-04   -3.826e-12  
   -1.28000     6.758e-06   -2.439e-06    6.807e-02  
   -1.27000     6.732e-06   -2.478e-06   -6.831e-02  
   -1.26000     6.707e-06   -2.516e-06   -3.812e-06  
   -1.25000     6.681e-06   -2.556e-06   -3.869e-06  
   -1.24000     6.655e-06   -2.595e-06   -3.928e-06  
   -1.23000     6.628e-06   -2.636e-06   -3.986e-06  
   -1.22000     6.601e-06   -2.677e-06   -4.046e-06  
   -1.21000     6.573e-06   -2.719e-06   -4.107e-06  
   -1.20000     6.545e-06   -2.761e-06   -4.168e-06  
   -1.19000     6.517e-06   -2.804e-06   -4.231e-06  
   -1.18000     6.488e-06   -2.847e-06   -4.293e-06  
   -1.17000     6.458e-06   -2.892e-06   -4.358e-06  
   -1.16000     6.428e-06   -2.937e-06   -4.423e-06  
   -1.15000     6.398e-06   -2.982e-06   -4.488e-06  
   -1.14000     6.367e-06   -3.028e-06   -4.555e-06  
   -1.13000     6.336e-06   -3.075e-06   -4.623e-06  
   -1.12000     6.304e-06   -3.123e-06   -4.691e-06  
   -1.11000     6.272e-06   -3.171e-06   -4.761e-06  
   -1.10000     6.240e-06   -3.220e-06   -4.831e-06  
   -1.09000     6.206e-06   -3.270e-06   -4.902e-06  
   -1.08000     6.173e-06   -3.320e-06   -4.974e-06  
   -1.07000     6.138e-06   -3.372e-06   -5.046e-06  
   -1.06000     6.104e-06   -3.424e-06   -5.120e-06  
   -1.05000     6.068e-06   -3.476e-06   -5.195e-06  
   -1.04000     6.032e-06   -3.530e-06   -5.271e-06  
   -1.03000     5.996e-06   -3.584e-06   -5.346e-06  
   -1.02000     5.959e-06   -3.639e-06   -5.424e-06  
   -1.01000     5.922e-06   -3.695e-06   -5.502e-06  
