 ****** HSPICE -- G-2012.06 32-BIT (May 27 2012) RHEL32 ******                  
  Copyright (C) 2012 Synopsys, Inc. All Rights Reserved.                        
  Unpublished-rights reserved under US copyright laws.
  This program is protected by law and is subject to the
  terms and conditions of the license agreement from Synopsys.
  Use of this program is your acceptance to be bound by the
  license agreement. HSPICE is the trademark of Synopsys, Inc.
  Input File: idvdpmos.sp                                                       
  Command line options: -hdlpath ../code -i idvdpmos.sp -o idvdpmos
 lic:  
 lic: FLEXlm: v10.8 
 lic: USER:   sourabh              HOSTNAME: bwrcr720-2.eecs.berkeley.edu 
 lic: HOSTID:                      PID:      14949 
 lic: Using FLEXlm license file: 
 lic: 1701@sunv40z-1.eecs.berkeley.edu 
 lic: Checkout 1 hspice 
 lic: License/Maintenance for hspice will expire on 18-nov-2016/2015.06 
 lic: 1(in_use)/50(total) FLOATING license(s) on SERVER sunv40z-1.eecs.berkeley.
 lic:   
 Init: read install configuration file: /tools/synopsys/hspice/G-2012.06/hspice/meta.cfg
 **info** *pvaI* Module (bsimcmg): 5 unexpanded port, 0 init, 2015 behav, 64 contrib, 49/3015 expr(s)

 **info** *pvaI* Resizing DB size for v count = 1

 **info** *pvaI* Resizing DB size for v count = 2

 **info** *pvaI*        Has DIS (PC SB), 5 afCount

 **info** *pvaI*        0 const-G and 0 const-C, Has switch branch.

 **info** *pvaI* Module (bsimcmg): generated 4 flow node(s) during compilation.

 **info** *pvaI* #### Total 762 line-size(s), 49 expr(s), 64 contr(s), 0 init(s), 2015 behav(s), 5 port(s)

 Loading pVA library idvdpmos.pvadir/pvaRTL_linux.so...
1****** HSPICE -- G-2012.06 32-BIT (May 27 2012) RHEL32 ******                  
 ******  
 *sample netlist for bsim-mg

  ******  circuit name directory
 circuit number to circuit name directory
   number circuitname                     definition         multiplier
        0 main circuit
        1 x1.                             bsimcmg(va)        1.00 
 **info** *pvaI* Creating Verilog-A module 'bsimcmg' for X1

  
      
 *****************************************************************
 ******  option summary
 ******
 runlvl  = 3         bypass  = 2         
  Opening plot unit= 15
 file=idvdpmos.pa0                                                             

 ******  
 *sample netlist for bsim-mg

  ******  dc transfer curves tnom=  25.000 temp= -55.000 *****

   *** source        0:vgs =    0.            ***

x

        volt    param        param      
                    ids         -gds    
    0.            0.           0.       
 -1.0000e-02    1.180e-16      0.       
 -2.0000e-02    6.679e-16    1.180e-14  
 -3.0000e-02    2.220e-15    5.499e-14  
 -4.0000e-02    5.451e-15    1.553e-13  
 -5.0000e-02    1.117e-14    3.230e-13  
 -6.0000e-02    2.032e-14    5.721e-13  
 -7.0000e-02    3.397e-14    9.145e-13  
 -8.0000e-02    5.335e-14    1.366e-12  
 -9.0000e-02    7.983e-14    1.938e-12  
   -0.10000     1.150e-13    2.648e-12  
   -0.11000     1.604e-13    3.512e-12  
   -0.12000     2.180e-13    4.544e-12  
   -0.13000     2.899e-13    5.763e-12  
   -0.14000     3.781e-13    7.183e-12  
   -0.15000     4.851e-13    8.823e-12  
   -0.16000     6.134e-13    1.070e-11  
   -0.17000     7.656e-13    1.283e-11  
   -0.18000     9.446e-13    1.522e-11  
   -0.19000     1.153e-12    1.790e-11  
   -0.20000     1.395e-12    2.088e-11  
   -0.21000     1.673e-12    2.418e-11  
   -0.22000     1.991e-12    2.780e-11  
   -0.23000     2.352e-12    3.177e-11  
   -0.24000     2.760e-12    3.609e-11  
   -0.25000     3.218e-12    4.078e-11  
   -0.26000     3.731e-12    4.584e-11  
   -0.27000     4.302e-12    5.129e-11  
   -0.28000     4.936e-12    5.712e-11  
   -0.29000     5.636e-12    6.336e-11  
   -0.30000     6.406e-12    6.999e-11  
   -0.31000     7.251e-12    7.703e-11  
   -0.32000     8.174e-12    8.447e-11  
   -0.33000     9.179e-12    9.231e-11  
   -0.34000     1.027e-11    1.005e-10  
   -0.35000     1.145e-11    1.092e-10  
   -0.36000     1.273e-11    1.182e-10  
   -0.37000     1.410e-11    1.276e-10  
   -0.38000     1.558e-11    1.373e-10  
   -0.39000     1.716e-11    1.474e-10  
   -0.40000     1.884e-11    1.579e-10  
   -0.41000     2.064e-11    1.686e-10  
   -0.42000     2.255e-11    1.797e-10  
   -0.43000     2.458e-11    1.910e-10  
   -0.44000     2.672e-11    2.027e-10  
   -0.45000     2.899e-11    2.145e-10  
   -0.46000     3.137e-11    2.266e-10  
   -0.47000     3.389e-11    2.388e-10  
   -0.48000     3.652e-11    2.512e-10  
   -0.49000     3.929e-11    2.638e-10  
   -0.50000     4.218e-11    2.765e-10  
   -0.51000     4.520e-11    2.892e-10  
   -0.52000     4.835e-11    3.021e-10  
   -0.53000     5.163e-11    3.150e-10  
   -0.54000     5.504e-11    3.278e-10  
   -0.55000     5.857e-11    3.407e-10  
   -0.56000     6.224e-11    3.536e-10  
   -0.57000     6.603e-11    3.663e-10  
   -0.58000     6.994e-11    3.790e-10  
   -0.59000     7.398e-11    3.916e-10  
   -0.60000     7.815e-11    4.041e-10  
   -0.61000     8.243e-11    4.164e-10  
   -0.62000     8.684e-11    4.285e-10  
   -0.63000     9.136e-11    4.405e-10  
   -0.64000     9.600e-11    4.522e-10  
   -0.65000     1.007e-10    4.638e-10  
   -0.66000     1.056e-10    4.751e-10  
   -0.67000     1.106e-10    4.862e-10  
   -0.68000     1.157e-10    4.970e-10  
   -0.69000     1.208e-10    5.075e-10  
   -0.70000     1.261e-10    5.178e-10  
   -0.71000     1.315e-10    5.278e-10  
   -0.72000     1.370e-10    5.376e-10  
   -0.73000     1.425e-10    5.470e-10  
   -0.74000     1.482e-10    5.562e-10  
   -0.75000     1.539e-10    5.650e-10  
   -0.76000     1.597e-10    5.736e-10  
   -0.77000     1.656e-10    5.818e-10  
   -0.78000     1.716e-10    5.898e-10  
   -0.79000     1.776e-10    5.975e-10  
   -0.80000     1.838e-10    6.048e-10  
   -0.81000     1.900e-10    6.119e-10  
   -0.82000     1.962e-10    6.187e-10  
   -0.83000     2.025e-10    6.253e-10  
   -0.84000     2.089e-10    6.315e-10  
   -0.85000     2.153e-10    6.375e-10  
   -0.86000     2.218e-10    6.432e-10  
   -0.87000     2.284e-10    6.486e-10  
   -0.88000     2.349e-10    6.539e-10  
   -0.89000     2.416e-10    6.588e-10  
   -0.90000     2.483e-10    6.635e-10  
   -0.91000     2.550e-10    6.680e-10  
   -0.92000     2.617e-10    6.722e-10  
   -0.93000     2.685e-10    6.763e-10  
   -0.94000     2.754e-10    6.801e-10  
   -0.95000     2.822e-10    6.837e-10  
   -0.96000     2.892e-10    6.871e-10  
   -0.97000     2.961e-10    6.904e-10  
   -0.98000     3.030e-10    6.934e-10  
   -0.99000     3.100e-10    6.963e-10  
   -1.00000     3.171e-10    6.990e-10  
y
-----------------------------------------------
 ******  
 *sample netlist for bsim-mg

  ******  dc transfer curves tnom=  25.000 temp= -55.000 *****

   *** source        0:vgs =   -0.1000        ***

x

        volt    param        param      
                    ids         -gds    
    0.         -5.338e-24      0.       
 -1.0000e-02    1.795e-15   -3.171e-08  
 -2.0000e-02    3.036e-15    1.795e-13  
 -3.0000e-02    4.309e-15    1.240e-13  
 -4.0000e-02    6.231e-15    1.273e-13  
 -5.0000e-02    9.399e-15    1.922e-13  
 -6.0000e-02    1.446e-14    3.168e-13  
 -7.0000e-02    2.211e-14    5.058e-13  
 -8.0000e-02    3.318e-14    7.657e-13  
 -9.0000e-02    4.859e-14    1.107e-12  
   -0.10000     6.940e-14    1.541e-12  
   -0.11000     9.682e-14    2.081e-12  
   -0.12000     1.322e-13    2.742e-12  
   -0.13000     1.769e-13    3.534e-12  
   -0.14000     2.327e-13    4.477e-12  
   -0.15000     3.014e-13    5.582e-12  
   -0.16000     3.849e-13    6.868e-12  
   -0.17000     4.852e-13    8.345e-12  
   -0.18000     6.047e-13    1.003e-11  
   -0.19000     7.457e-13    1.195e-11  
   -0.20000     9.108e-13    1.410e-11  
   -0.21000     1.103e-12    1.651e-11  
   -0.22000     1.324e-12    1.919e-11  
   -0.23000     1.578e-12    2.215e-11  
   -0.24000     1.868e-12    2.542e-11  
   -0.25000     2.197e-12    2.899e-11  
   -0.26000     2.568e-12    3.288e-11  
   -0.27000     2.985e-12    3.711e-11  
   -0.28000     3.451e-12    4.167e-11  
   -0.29000     3.969e-12    4.658e-11  
   -0.30000     4.544e-12    5.186e-11  
   -0.31000     5.179e-12    5.749e-11  
   -0.32000     5.878e-12    6.350e-11  
   -0.33000     6.644e-12    6.987e-11  
   -0.34000     7.481e-12    7.660e-11  
   -0.35000     8.393e-12    8.370e-11  
   -0.36000     9.383e-12    9.117e-11  
   -0.37000     1.045e-11    9.900e-11  
   -0.38000     1.161e-11    1.072e-10  
   -0.39000     1.286e-11    1.157e-10  
   -0.40000     1.419e-11    1.246e-10  
   -0.41000     1.563e-11    1.337e-10  
   -0.42000     1.716e-11    1.432e-10  
   -0.43000     1.879e-11    1.530e-10  
   -0.44000     2.052e-11    1.631e-10  
   -0.45000     2.236e-11    1.734e-10  
   -0.46000     2.431e-11    1.840e-10  
   -0.47000     2.637e-11    1.948e-10  
   -0.48000     2.854e-11    2.057e-10  
   -0.49000     3.082e-11    2.169e-10  
   -0.50000     3.322e-11    2.283e-10  
   -0.51000     3.573e-11    2.397e-10  
   -0.52000     3.836e-11    2.513e-10  
   -0.53000     4.111e-11    2.630e-10  
   -0.54000     4.397e-11    2.747e-10  
   -0.55000     4.695e-11    2.865e-10  
   -0.56000     5.005e-11    2.983e-10  
   -0.57000     5.327e-11    3.101e-10  
   -0.58000     5.661e-11    3.219e-10  
   -0.59000     6.006e-11    3.337e-10  
   -0.60000     6.363e-11    3.454e-10  
   -0.61000     6.732e-11    3.570e-10  
   -0.62000     7.112e-11    3.684e-10  
   -0.63000     7.503e-11    3.798e-10  
   -0.64000     7.905e-11    3.911e-10  
   -0.65000     8.318e-11    4.022e-10  
   -0.66000     8.742e-11    4.131e-10  
   -0.67000     9.176e-11    4.238e-10  
   -0.68000     9.621e-11    4.344e-10  
   -0.69000     1.008e-10    4.448e-10  
   -0.70000     1.054e-10    4.549e-10  
   -0.71000     1.102e-10    4.648e-10  
   -0.72000     1.150e-10    4.745e-10  
   -0.73000     1.199e-10    4.840e-10  
   -0.74000     1.249e-10    4.932e-10  
   -0.75000     1.301e-10    5.022e-10  
   -0.76000     1.352e-10    5.109e-10  
   -0.77000     1.405e-10    5.194e-10  
   -0.78000     1.459e-10    5.276e-10  
   -0.79000     1.513e-10    5.356e-10  
   -0.80000     1.568e-10    5.433e-10  
   -0.81000     1.624e-10    5.507e-10  
   -0.82000     1.681e-10    5.580e-10  
   -0.83000     1.738e-10    5.649e-10  
   -0.84000     1.795e-10    5.716e-10  
   -0.85000     1.854e-10    5.781e-10  
   -0.86000     1.913e-10    5.843e-10  
   -0.87000     1.973e-10    5.903e-10  
   -0.88000     2.033e-10    5.961e-10  
   -0.89000     2.093e-10    6.016e-10  
   -0.90000     2.155e-10    6.069e-10  
   -0.91000     2.216e-10    6.120e-10  
   -0.92000     2.278e-10    6.169e-10  
   -0.93000     2.341e-10    6.216e-10  
   -0.94000     2.404e-10    6.261e-10  
   -0.95000     2.468e-10    6.303e-10  
   -0.96000     2.531e-10    6.344e-10  
   -0.97000     2.596e-10    6.384e-10  
   -0.98000     2.660e-10    6.421e-10  
   -0.99000     2.725e-10    6.457e-10  
   -1.00000     2.790e-10    6.490e-10  
y
-----------------------------------------------
 ******  
 *sample netlist for bsim-mg

  ******  dc transfer curves tnom=  25.000 temp= -55.000 *****

   *** source        0:vgs =   -0.2000        ***

x

        volt    param        param      
                    ids         -gds    
    0.         -1.809e-21      0.       
 -1.0000e-02    3.004e-13   -2.790e-08  
 -2.0000e-02    4.686e-13    3.004e-11  
 -3.0000e-02    5.547e-13    1.682e-11  
 -4.0000e-02    5.988e-13    8.609e-12  
 -5.0000e-02    6.247e-13    4.416e-12  
 -6.0000e-02    6.433e-13    2.588e-12  
 -7.0000e-02    6.594e-13    1.855e-12  
 -8.0000e-02    6.754e-13    1.609e-12  
 -9.0000e-02    6.928e-13    1.605e-12  
   -0.10000     7.127e-13    1.741e-12  
   -0.11000     7.360e-13    1.987e-12  
   -0.12000     7.638e-13    2.332e-12  
   -0.13000     7.970e-13    2.776e-12  
   -0.14000     8.369e-13    3.324e-12  
   -0.15000     8.847e-13    3.988e-12  
   -0.16000     9.419e-13    4.782e-12  
   -0.17000     1.010e-12    5.716e-12  
   -0.18000     1.090e-12    6.802e-12  
   -0.19000     1.185e-12    8.056e-12  
   -0.20000     1.297e-12    9.491e-12  
   -0.21000     1.426e-12    1.112e-11  
   -0.22000     1.577e-12    1.297e-11  
   -0.23000     1.750e-12    1.504e-11  
   -0.24000     1.949e-12    1.734e-11  
   -0.25000     2.176e-12    1.991e-11  
   -0.26000     2.435e-12    2.273e-11  
   -0.27000     2.727e-12    2.583e-11  
   -0.28000     3.056e-12    2.922e-11  
   -0.29000     3.425e-12    3.292e-11  
   -0.30000     3.838e-12    3.691e-11  
   -0.31000     4.296e-12    4.123e-11  
   -0.32000     4.805e-12    4.587e-11  
   -0.33000     5.366e-12    5.084e-11  
   -0.34000     5.984e-12    5.615e-11  
   -0.35000     6.662e-12    6.178e-11  
   -0.36000     7.402e-12    6.776e-11  
   -0.37000     8.210e-12    7.408e-11  
   -0.38000     9.087e-12    8.072e-11  
   -0.39000     1.004e-11    8.771e-11  
   -0.40000     1.106e-11    9.502e-11  
   -0.41000     1.217e-11    1.027e-10  
   -0.42000     1.336e-11    1.106e-10  
   -0.43000     1.463e-11    1.188e-10  
   -0.44000     1.599e-11    1.274e-10  
   -0.45000     1.745e-11    1.362e-10  
   -0.46000     1.899e-11    1.452e-10  
   -0.47000     2.063e-11    1.546e-10  
   -0.48000     2.237e-11    1.641e-10  
   -0.49000     2.421e-11    1.739e-10  
   -0.50000     2.615e-11    1.839e-10  
   -0.51000     2.819e-11    1.940e-10  
   -0.52000     3.034e-11    2.043e-10  
   -0.53000     3.259e-11    2.148e-10  
   -0.54000     3.495e-11    2.253e-10  
   -0.55000     3.742e-11    2.360e-10  
   -0.56000     4.000e-11    2.467e-10  
   -0.57000     4.268e-11    2.575e-10  
   -0.58000     4.547e-11    2.683e-10  
   -0.59000     4.837e-11    2.792e-10  
   -0.60000     5.138e-11    2.901e-10  
   -0.61000     5.450e-11    3.009e-10  
   -0.62000     5.772e-11    3.117e-10  
   -0.63000     6.105e-11    3.224e-10  
   -0.64000     6.449e-11    3.331e-10  
   -0.65000     6.803e-11    3.437e-10  
   -0.66000     7.168e-11    3.542e-10  
   -0.67000     7.542e-11    3.645e-10  
   -0.68000     7.927e-11    3.748e-10  
   -0.69000     8.322e-11    3.848e-10  
   -0.70000     8.726e-11    3.948e-10  
   -0.71000     9.141e-11    4.046e-10  
   -0.72000     9.564e-11    4.142e-10  
   -0.73000     9.997e-11    4.236e-10  
   -0.74000     1.044e-10    4.328e-10  
   -0.75000     1.089e-10    4.419e-10  
   -0.76000     1.135e-10    4.507e-10  
   -0.77000     1.182e-10    4.593e-10  
   -0.78000     1.229e-10    4.677e-10  
   -0.79000     1.278e-10    4.760e-10  
   -0.80000     1.327e-10    4.840e-10  
   -0.81000     1.377e-10    4.917e-10  
   -0.82000     1.427e-10    4.993e-10  
   -0.83000     1.479e-10    5.067e-10  
   -0.84000     1.531e-10    5.138e-10  
   -0.85000     1.584e-10    5.208e-10  
   -0.86000     1.637e-10    5.274e-10  
   -0.87000     1.691e-10    5.339e-10  
   -0.88000     1.746e-10    5.402e-10  
   -0.89000     1.801e-10    5.463e-10  
   -0.90000     1.857e-10    5.522e-10  
   -0.91000     1.913e-10    5.579e-10  
   -0.92000     1.970e-10    5.634e-10  
   -0.93000     2.027e-10    5.687e-10  
   -0.94000     2.085e-10    5.738e-10  
   -0.95000     2.143e-10    5.787e-10  
   -0.96000     2.202e-10    5.835e-10  
   -0.97000     2.262e-10    5.880e-10  
   -0.98000     2.321e-10    5.925e-10  
   -0.99000     2.381e-10    5.967e-10  
   -1.00000     2.442e-10    6.008e-10  
y
-----------------------------------------------
 ******  
 *sample netlist for bsim-mg

  ******  dc transfer curves tnom=  25.000 temp= -55.000 *****

   *** source        0:vgs =   -0.3000        ***

x

        volt    param        param      
                    ids         -gds    
    0.         -4.599e-19      0.       
 -1.0000e-02    5.091e-11   -2.442e-08  
 -2.0000e-02    7.937e-11    5.091e-09  
 -3.0000e-02    9.388e-11    2.847e-09  
 -4.0000e-02    1.012e-10    1.451e-09  
 -5.0000e-02    1.053e-10    7.326e-10  
 -6.0000e-02    1.080e-10    4.116e-10  
 -7.0000e-02    1.101e-10    2.715e-10  
 -8.0000e-02    1.119e-10    2.078e-10  
 -9.0000e-02    1.135e-10    1.772e-10  
   -0.10000     1.151e-10    1.619e-10  
   -0.11000     1.166e-10    1.542e-10  
   -0.12000     1.180e-10    1.505e-10  
   -0.13000     1.195e-10    1.490e-10  
   -0.14000     1.210e-10    1.488e-10  
   -0.15000     1.225e-10    1.493e-10  
   -0.16000     1.240e-10    1.504e-10  
   -0.17000     1.256e-10    1.519e-10  
   -0.18000     1.271e-10    1.536e-10  
   -0.19000     1.287e-10    1.555e-10  
   -0.20000     1.303e-10    1.576e-10  
   -0.21000     1.319e-10    1.599e-10  
   -0.22000     1.336e-10    1.624e-10  
   -0.23000     1.353e-10    1.651e-10  
   -0.24000     1.370e-10    1.679e-10  
   -0.25000     1.387e-10    1.710e-10  
   -0.26000     1.405e-10    1.742e-10  
   -0.27000     1.423e-10    1.777e-10  
   -0.28000     1.442e-10    1.815e-10  
   -0.29000     1.461e-10    1.854e-10  
   -0.30000     1.480e-10    1.897e-10  
   -0.31000     1.500e-10    1.942e-10  
   -0.32000     1.520e-10    1.989e-10  
   -0.33000     1.541e-10    2.040e-10  
   -0.34000     1.563e-10    2.094e-10  
   -0.35000     1.585e-10    2.150e-10  
   -0.36000     1.608e-10    2.210e-10  
   -0.37000     1.631e-10    2.273e-10  
   -0.38000     1.655e-10    2.339e-10  
   -0.39000     1.680e-10    2.408e-10  
   -0.40000     1.705e-10    2.480e-10  
   -0.41000     1.732e-10    2.556e-10  
   -0.42000     1.759e-10    2.634e-10  
   -0.43000     1.787e-10    2.716e-10  
   -0.44000     1.816e-10    2.801e-10  
   -0.45000     1.846e-10    2.888e-10  
   -0.46000     1.876e-10    2.979e-10  
   -0.47000     1.908e-10    3.072e-10  
   -0.48000     1.941e-10    3.168e-10  
   -0.49000     1.974e-10    3.266e-10  
   -0.50000     2.009e-10    3.367e-10  
   -0.51000     2.045e-10    3.470e-10  
   -0.52000     2.082e-10    3.575e-10  
   -0.53000     2.120e-10    3.682e-10  
   -0.54000     2.159e-10    3.791e-10  
   -0.55000     2.199e-10    3.901e-10  
   -0.56000     2.240e-10    4.012e-10  
   -0.57000     2.282e-10    4.125e-10  
   -0.58000     2.326e-10    4.239e-10  
   -0.59000     2.371e-10    4.354e-10  
   -0.60000     2.416e-10    4.469e-10  
   -0.61000     2.463e-10    4.585e-10  
   -0.62000     2.512e-10    4.701e-10  
   -0.63000     2.561e-10    4.818e-10  
   -0.64000     2.611e-10    4.934e-10  
   -0.65000     2.663e-10    5.050e-10  
   -0.66000     2.716e-10    5.166e-10  
   -0.67000     2.770e-10    5.282e-10  
   -0.68000     2.825e-10    5.396e-10  
   -0.69000     2.881e-10    5.511e-10  
   -0.70000     2.939e-10    5.624e-10  
   -0.71000     2.997e-10    5.736e-10  
   -0.72000     3.057e-10    5.848e-10  
   -0.73000     3.117e-10    5.958e-10  
   -0.74000     3.179e-10    6.067e-10  
   -0.75000     3.242e-10    6.174e-10  
   -0.76000     3.306e-10    6.280e-10  
   -0.77000     3.371e-10    6.385e-10  
   -0.78000     3.436e-10    6.488e-10  
   -0.79000     3.503e-10    6.590e-10  
   -0.80000     3.571e-10    6.690e-10  
   -0.81000     3.640e-10    6.788e-10  
   -0.82000     3.710e-10    6.885e-10  
   -0.83000     3.781e-10    6.980e-10  
   -0.84000     3.852e-10    7.073e-10  
   -0.85000     3.925e-10    7.165e-10  
   -0.86000     3.998e-10    7.255e-10  
   -0.87000     4.073e-10    7.343e-10  
   -0.88000     4.148e-10    7.430e-10  
   -0.89000     4.224e-10    7.514e-10  
   -0.90000     4.300e-10    7.597e-10  
   -0.91000     4.378e-10    7.678e-10  
   -0.92000     4.456e-10    7.758e-10  
   -0.93000     4.536e-10    7.836e-10  
   -0.94000     4.615e-10    7.913e-10  
   -0.95000     4.696e-10    7.988e-10  
   -0.96000     4.777e-10    8.061e-10  
   -0.97000     4.859e-10    8.133e-10  
   -0.98000     4.942e-10    8.203e-10  
   -0.99000     5.025e-10    8.272e-10  
