 ****** HSPICE -- G-2012.06 32-BIT (May 27 2012) RHEL32 ******                  
  Copyright (C) 2012 Synopsys, Inc. All Rights Reserved.                        
  Unpublished-rights reserved under US copyright laws.
  This program is protected by law and is subject to the
  terms and conditions of the license agreement from Synopsys.
  Use of this program is your acceptance to be bound by the
  license agreement. HSPICE is the trademark of Synopsys, Inc.
  Input File: idvdnmos.sp                                                       
  Command line options: -hdlpath ../code -i idvdnmos.sp -o idvdnmos
 lic:  
 lic: FLEXlm: v10.8 
 lic: USER:   sourabh              HOSTNAME: bwrcr720-2.eecs.berkeley.edu 
 lic: HOSTID:                      PID:      14880 
 lic: Using FLEXlm license file: 
 lic: 1701@sunv40z-1.eecs.berkeley.edu 
 lic: Checkout 1 hspice 
 lic: License/Maintenance for hspice will expire on 18-nov-2016/2015.06 
 lic: 1(in_use)/50(total) FLOATING license(s) on SERVER sunv40z-1.eecs.berkeley.
 lic:   
 Init: read install configuration file: /tools/synopsys/hspice/G-2012.06/hspice/meta.cfg
 **info** *pvaI* Module (bsimcmg): 5 unexpanded port, 0 init, 2015 behav, 64 contrib, 49/3015 expr(s)

 **info** *pvaI* Resizing DB size for v count = 1

 **info** *pvaI* Resizing DB size for v count = 2

 **info** *pvaI*        Has DIS (PC SB), 5 afCount

 **info** *pvaI*        0 const-G and 0 const-C, Has switch branch.

 **info** *pvaI* Module (bsimcmg): generated 4 flow node(s) during compilation.

 **info** *pvaI* #### Total 762 line-size(s), 49 expr(s), 64 contr(s), 0 init(s), 2015 behav(s), 5 port(s)

 Loading pVA library idvdnmos.pvadir/pvaRTL_linux.so...
1****** HSPICE -- G-2012.06 32-BIT (May 27 2012) RHEL32 ******                  
 ******  
 *sample netlist for bsim-mg

  ******  circuit name directory
 circuit number to circuit name directory
   number circuitname                     definition         multiplier
        0 main circuit
        1 x1.                             bsimcmg(va)        1.00 
 **info** *pvaI* Creating Verilog-A module 'bsimcmg' for X1

  
      
 *****************************************************************
 ******  option summary
 ******
 runlvl  = 3         bypass  = 2         
  Opening plot unit= 15
 file=idvdnmos.pa0                                                             

 ******  
 *sample netlist for bsim-mg

  ******  dc transfer curves tnom=  25.000 temp= -55.000 *****

   *** source        0:vgs =    0.            ***

x

        volt    param        param      
                    ids          gds    
    0.         -4.553e-19      0.       
  1.0000e-02    7.373e-17   -4.553e-17  
  2.0000e-02    1.162e-16    7.418e-15  
  3.0000e-02    1.370e-16    4.250e-15  
  4.0000e-02    1.492e-16    2.082e-15  
  5.0000e-02    1.527e-16    1.214e-15  
  6.0000e-02    1.596e-16    3.469e-16  
  7.0000e-02    1.596e-16    6.939e-16  
  8.0000e-02    1.665e-16      0.       
  9.0000e-02    1.665e-16    6.939e-16  
    0.10000     1.665e-16      0.       
    0.11000     1.665e-16      0.       
    0.12000     1.665e-16      0.       
    0.13000     1.665e-16      0.       
    0.14000     1.665e-16      0.       
    0.15000     1.665e-16      0.       
    0.16000     1.665e-16      0.       
    0.17000     1.665e-16      0.       
    0.18000     1.665e-16      0.       
    0.19000     1.665e-16      0.       
    0.20000     1.804e-16      0.       
    0.21000     1.665e-16    1.388e-15  
    0.22000     1.943e-16   -1.388e-15  
    0.23000     2.637e-16    2.776e-15  
    0.24000     3.608e-16    6.939e-15  
    0.25000     5.551e-16    9.714e-15  
    0.26000     8.604e-16    1.943e-14  
    0.27000     1.305e-15    3.053e-14  
    0.28000     1.915e-15    4.441e-14  
    0.29000     2.720e-15    6.106e-14  
    0.30000     3.775e-15    8.049e-14  
    0.31000     5.135e-15    1.055e-13  
    0.32000     6.828e-15    1.360e-13  
    0.33000     8.854e-15    1.693e-13  
    0.34000     1.132e-14    2.026e-13  
    0.35000     1.432e-14    2.470e-13  
    0.36000     1.779e-14    2.998e-13  
    0.37000     2.187e-14    3.469e-13  
    0.38000     2.665e-14    4.080e-13  
    0.39000     3.209e-14    4.774e-13  
    0.40000     3.833e-14    5.440e-13  
    0.41000     4.546e-14    6.245e-13  
    0.42000     5.343e-14    7.133e-13  
    0.43000     6.239e-14    7.966e-13  
    0.44000     7.247e-14    8.965e-13  
    0.45000     8.368e-14    1.008e-12  
    0.46000     9.612e-14    1.121e-12  
    0.47000     1.098e-13    1.243e-12  
    0.48000     1.248e-13    1.366e-12  
    0.49000     1.412e-13    1.502e-12  
    0.50000     1.593e-13    1.643e-12  
    0.51000     1.788e-13    1.804e-12  
    0.52000     2.000e-13    1.954e-12  
    0.53000     2.229e-13    2.115e-12  
    0.54000     2.476e-13    2.293e-12  
    0.55000     2.741e-13    2.470e-12  
    0.56000     3.025e-13    2.653e-12  
    0.57000     3.328e-13    2.837e-12  
    0.58000     3.652e-13    3.036e-12  
    0.59000     3.998e-13    3.236e-12  
    0.60000     4.364e-13    3.458e-12  
    0.61000     4.751e-13    3.664e-12  
    0.62000     5.161e-13    3.869e-12  
    0.63000     5.594e-13    4.102e-12  
    0.64000     6.049e-13    4.330e-12  
    0.65000     6.527e-13    4.546e-12  
    0.66000     7.028e-13    4.780e-12  
    0.67000     7.553e-13    5.013e-12  
    0.68000     8.102e-13    5.246e-12  
    0.69000     8.673e-13    5.490e-12  
    0.70000     9.269e-13    5.707e-12  
    0.71000     9.887e-13    5.962e-12  
    0.72000     1.053e-12    6.184e-12  
    0.73000     1.119e-12    6.423e-12  
    0.74000     1.188e-12    6.656e-12  
    0.75000     1.260e-12    6.894e-12  
    0.76000     1.333e-12    7.111e-12  
    0.77000     1.409e-12    7.344e-12  
    0.78000     1.487e-12    7.566e-12  
    0.79000     1.567e-12    7.788e-12  
    0.80000     1.649e-12    8.010e-12  
    0.81000     1.733e-12    8.216e-12  
    0.82000     1.819e-12    8.427e-12  
    0.83000     1.908e-12    8.632e-12  
    0.84000     1.998e-12    8.832e-12  
    0.85000     2.090e-12    9.026e-12  
    0.86000     2.184e-12    9.209e-12  
    0.87000     2.280e-12    9.404e-12  
    0.88000     2.377e-12    9.565e-12  
    0.89000     2.476e-12    9.759e-12  
    0.90000     2.577e-12    9.914e-12  
    0.91000     2.679e-12    1.008e-11  
    0.92000     2.783e-12    1.023e-11  
    0.93000     2.889e-12    1.038e-11  
    0.94000     2.995e-12    1.052e-11  
    0.95000     3.103e-12    1.066e-11  
    0.96000     3.212e-12    1.079e-11  
    0.97000     3.323e-12    1.091e-11  
    0.98000     3.434e-12    1.104e-11  
    0.99000     3.547e-12    1.116e-11  
    1.00000     3.661e-12    1.127e-11  
y
-----------------------------------------------
 ******  
 *sample netlist for bsim-mg

  ******  dc transfer curves tnom=  25.000 temp= -55.000 *****

   *** source        0:vgs =    0.1000        ***

x

        volt    param        param      
                    ids          gds    
    0.         -2.187e-19      0.       
  1.0000e-02    3.108e-15   -3.661e-10  
  2.0000e-02    4.902e-15    3.108e-13  
  3.0000e-02    5.836e-15    1.795e-13  
  4.0000e-02    6.328e-15    9.333e-14  
  5.0000e-02    6.637e-15    4.927e-14  
  6.0000e-02    6.870e-15    3.088e-14  
  7.0000e-02    7.071e-15    2.325e-14  
  8.0000e-02    7.272e-15    2.012e-14  
  9.0000e-02    7.473e-15    2.012e-14  
    0.10000     7.667e-15    2.012e-14  
    0.11000     7.883e-15    1.943e-14  
    0.12000     8.105e-15    2.151e-14  
    0.13000     8.327e-15    2.220e-14  
    0.14000     8.576e-15    2.220e-14  
    0.15000     8.826e-15    2.498e-14  
    0.16000     9.090e-15    2.498e-14  
    0.17000     9.354e-15    2.637e-14  
    0.18000     9.645e-15    2.637e-14  
    0.19000     9.923e-15    2.914e-14  
    0.20000     1.021e-14    2.776e-14  
    0.21000     1.055e-14    2.914e-14  
    0.22000     1.087e-14    3.331e-14  
    0.23000     1.121e-14    3.192e-14  
    0.24000     1.163e-14    3.469e-14  
    0.25000     1.210e-14    4.163e-14  
    0.26000     1.271e-14    4.718e-14  
    0.27000     1.338e-14    6.106e-14  
    0.28000     1.418e-14    6.661e-14  
    0.29000     1.515e-14    8.049e-14  
    0.30000     1.632e-14    9.714e-14  
    0.31000     1.771e-14    1.166e-13  
    0.32000     1.937e-14    1.388e-13  
    0.33000     2.132e-14    1.665e-13  
    0.34000     2.362e-14    1.943e-13  
    0.35000     2.623e-14    2.304e-13  
    0.36000     2.934e-14    2.609e-13  
    0.37000     3.295e-14    3.109e-13  
    0.38000     3.705e-14    3.608e-13  
    0.39000     4.174e-14    4.108e-13  
    0.40000     4.707e-14    4.691e-13  
    0.41000     5.307e-14    5.329e-13  
    0.42000     5.984e-14    5.995e-13  
    0.43000     6.745e-14    6.772e-13  
    0.44000     7.597e-14    7.605e-13  
    0.45000     8.540e-14    8.521e-13  
    0.46000     9.581e-14    9.437e-13  
    0.47000     1.074e-13    1.041e-12  
    0.48000     1.200e-13    1.155e-12  
    0.49000     1.339e-13    1.268e-12  
    0.50000     1.491e-13    1.391e-12  
    0.51000     1.656e-13    1.515e-12  
    0.52000     1.836e-13    1.654e-12  
    0.53000     2.030e-13    1.793e-12  
    0.54000     2.240e-13    1.943e-12  
    0.55000     2.466e-13    2.098e-12  
    0.56000     2.708e-13    2.259e-12  
    0.57000     2.969e-13    2.426e-12  
    0.58000     3.246e-13    2.603e-12  
    0.59000     3.542e-13    2.770e-12  
    0.60000     3.857e-13    2.959e-12  
    0.61000     4.192e-13    3.153e-12  
    0.62000     4.546e-13    3.347e-12  
    0.63000     4.920e-13    3.547e-12  
    0.64000     5.316e-13    3.736e-12  
    0.65000     5.731e-13    3.958e-12  
    0.66000     6.168e-13    4.152e-12  
    0.67000     6.626e-13    4.374e-12  
    0.68000     7.107e-13    4.580e-12  
    0.69000     7.608e-13    4.807e-12  
    0.70000     8.132e-13    5.013e-12  
    0.71000     8.678e-13    5.240e-12  
    0.72000     9.245e-13    5.457e-12  
    0.73000     9.834e-13    5.673e-12  
    0.74000     1.045e-12    5.890e-12  
    0.75000     1.108e-12    6.117e-12  
    0.76000     1.173e-12    6.328e-12  
    0.77000     1.241e-12    6.545e-12  
    0.78000     1.311e-12    6.767e-12  
    0.79000     1.382e-12    6.967e-12  
    0.80000     1.456e-12    7.178e-12  
    0.81000     1.532e-12    7.389e-12  
    0.82000     1.610e-12    7.588e-12  
    0.83000     1.690e-12    7.783e-12  
    0.84000     1.772e-12    7.988e-12  
    0.85000     1.855e-12    8.182e-12  
    0.86000     1.941e-12    8.371e-12  
    0.87000     2.028e-12    8.554e-12  
    0.88000     2.117e-12    8.721e-12  
    0.89000     2.208e-12    8.915e-12  
    0.90000     2.300e-12    9.071e-12  
    0.91000     2.394e-12    9.232e-12  
    0.92000     2.490e-12    9.409e-12  
    0.93000     2.587e-12    9.553e-12  
    0.94000     2.686e-12    9.709e-12  
    0.95000     2.786e-12    9.853e-12  
    0.96000     2.887e-12    9.998e-12  
    0.97000     2.989e-12    1.013e-11  
    0.98000     3.093e-12    1.026e-11  
    0.99000     3.198e-12    1.039e-11  
    1.00000     3.305e-12    1.050e-11  
y
-----------------------------------------------
 ******  
 *sample netlist for bsim-mg

  ******  dc transfer curves tnom=  25.000 temp= -55.000 *****

   *** source        0:vgs =    0.2000        ***

x

        volt    param        param      
                    ids          gds    
    0.         -2.821e-18      0.       
  1.0000e-02    3.740e-13   -3.305e-10  
  2.0000e-02    5.892e-13    3.740e-11  
  3.0000e-02    7.009e-13    2.153e-11  
  4.0000e-02    7.590e-13    1.116e-11  
  5.0000e-02    7.942e-13    5.818e-12  
  6.0000e-02    8.200e-13    3.515e-12  
  7.0000e-02    8.422e-13    2.583e-12  
  8.0000e-02    8.632e-13    2.221e-12  
  9.0000e-02    8.841e-13    2.100e-12  
    0.10000     9.053e-13    2.086e-12  
    0.11000     9.272e-13    2.124e-12  
    0.12000     9.497e-13    2.184e-12  
    0.13000     9.731e-13    2.258e-12  
    0.14000     9.973e-13    2.338e-12  
    0.15000     1.022e-12    2.418e-12  
    0.16000     1.048e-12    2.502e-12  
    0.17000     1.075e-12    2.590e-12  
    0.18000     1.103e-12    2.673e-12  
    0.19000     1.131e-12    2.758e-12  
    0.20000     1.160e-12    2.846e-12  
    0.21000     1.190e-12    2.927e-12  
    0.22000     1.221e-12    3.018e-12  
    0.23000     1.253e-12    3.103e-12  
    0.24000     1.286e-12    3.193e-12  
    0.25000     1.320e-12    3.288e-12  
    0.26000     1.355e-12    3.376e-12  
    0.27000     1.391e-12    3.479e-12  
    0.28000     1.427e-12    3.575e-12  
    0.29000     1.465e-12    3.678e-12  
    0.30000     1.504e-12    3.780e-12  
    0.31000     1.544e-12    3.889e-12  
    0.32000     1.585e-12    4.013e-12  
    0.33000     1.628e-12    4.122e-12  
    0.34000     1.672e-12    4.247e-12  
    0.35000     1.717e-12    4.372e-12  
    0.36000     1.763e-12    4.508e-12  
    0.37000     1.811e-12    4.646e-12  
    0.38000     1.860e-12    4.785e-12  
    0.39000     1.911e-12    4.943e-12  
    0.40000     1.964e-12    5.099e-12  
    0.41000     2.018e-12    5.260e-12  
    0.42000     2.074e-12    5.432e-12  
    0.43000     2.132e-12    5.609e-12  
    0.44000     2.192e-12    5.801e-12  
    0.45000     2.254e-12    5.992e-12  
    0.46000     2.318e-12    6.192e-12  
    0.47000     2.385e-12    6.406e-12  
    0.48000     2.453e-12    6.628e-12  
    0.49000     2.524e-12    6.850e-12  
    0.50000     2.597e-12    7.092e-12  
    0.51000     2.673e-12    7.330e-12  
    0.52000     2.752e-12    7.583e-12  
    0.53000     2.833e-12    7.855e-12  
    0.54000     2.917e-12    8.121e-12  
    0.55000     3.004e-12    8.404e-12  
    0.56000     3.094e-12    8.687e-12  
    0.57000     3.187e-12    8.998e-12  
    0.58000     3.283e-12    9.309e-12  
    0.59000     3.382e-12    9.615e-12  
    0.60000     3.485e-12    9.942e-12  
    0.61000     3.591e-12    1.028e-11  
    0.62000     3.701e-12    1.062e-11  
    0.63000     3.814e-12    1.096e-11  
    0.64000     3.931e-12    1.132e-11  
    0.65000     4.052e-12    1.170e-11  
    0.66000     4.176e-12    1.206e-11  
    0.67000     4.305e-12    1.244e-11  
    0.68000     4.437e-12    1.283e-11  
    0.69000     4.573e-12    1.321e-11  
    0.70000     4.713e-12    1.362e-11  
    0.71000     4.857e-12    1.402e-11  
    0.72000     5.006e-12    1.442e-11  
    0.73000     5.158e-12    1.484e-11  
    0.74000     5.315e-12    1.526e-11  
    0.75000     5.476e-12    1.568e-11  
    0.76000     5.642e-12    1.611e-11  
    0.77000     5.811e-12    1.654e-11  
    0.78000     5.986e-12    1.698e-11  
    0.79000     6.164e-12    1.741e-11  
    0.80000     6.347e-12    1.785e-11  
    0.81000     6.534e-12    1.830e-11  
    0.82000     6.727e-12    1.874e-11  
    0.83000     6.923e-12    1.920e-11  
    0.84000     7.124e-12    1.964e-11  
    0.85000     7.329e-12    2.009e-11  
    0.86000     7.540e-12    2.056e-11  
    0.87000     7.754e-12    2.101e-11  
    0.88000     7.973e-12    2.147e-11  
    0.89000     8.197e-12    2.192e-11  
    0.90000     8.426e-12    2.239e-11  
    0.91000     8.659e-12    2.285e-11  
    0.92000     8.897e-12    2.331e-11  
    0.93000     9.139e-12    2.378e-11  
    0.94000     9.386e-12    2.424e-11  
    0.95000     9.638e-12    2.473e-11  
    0.96000     9.895e-12    2.519e-11  
    0.97000     1.016e-11    2.566e-11  
    0.98000     1.042e-11    2.614e-11  
    0.99000     1.069e-11    2.662e-11  
    1.00000     1.097e-11    2.708e-11  
y
-----------------------------------------------
 ******  
 *sample netlist for bsim-mg

  ******  dc transfer curves tnom=  25.000 temp= -55.000 *****

   *** source        0:vgs =    0.3000        ***

x

        volt    param        param      
                    ids          gds    
    0.         -4.975e-16      0.       
  1.0000e-02    4.499e-11   -1.097e-09  
  2.0000e-02    7.084e-11    4.499e-09  
  3.0000e-02    8.417e-11    2.585e-09  
  4.0000e-02    9.101e-11    1.332e-09  
  5.0000e-02    9.504e-11    6.844e-10  
  6.0000e-02    9.790e-11    4.028e-10  
  7.0000e-02    1.003e-10    2.866e-10  
  8.0000e-02    1.025e-10    2.392e-10  
  9.0000e-02    1.047e-10    2.209e-10  
    0.10000     1.068e-10    2.156e-10  
    0.11000     1.090e-10    2.165e-10  
    0.12000     1.113e-10    2.204e-10  
    0.13000     1.136e-10    2.258e-10  
    0.14000     1.160e-10    2.320e-10  
    0.15000     1.184e-10    2.386e-10  
    0.16000     1.210e-10    2.453e-10  
    0.17000     1.236e-10    2.521e-10  
    0.18000     1.262e-10    2.589e-10  
    0.19000     1.289e-10    2.657e-10  
    0.20000     1.317e-10    2.725e-10  
    0.21000     1.346e-10    2.793e-10  
    0.22000     1.375e-10    2.861e-10  
    0.23000     1.405e-10    2.930e-10  
    0.24000     1.436e-10    2.998e-10  
    0.25000     1.467e-10    3.067e-10  
    0.26000     1.499e-10    3.136e-10  
    0.27000     1.532e-10    3.205e-10  
    0.28000     1.566e-10    3.275e-10  
    0.29000     1.600e-10    3.346e-10  
    0.30000     1.635e-10    3.417e-10  
    0.31000     1.670e-10    3.489e-10  
    0.32000     1.707e-10    3.562e-10  
    0.33000     1.744e-10    3.636e-10  
    0.34000     1.782e-10    3.711e-10  
    0.35000     1.820e-10    3.786e-10  
    0.36000     1.860e-10    3.863e-10  
    0.37000     1.900e-10    3.940e-10  
    0.38000     1.941e-10    4.019e-10  
    0.39000     1.983e-10    4.099e-10  
    0.40000     2.025e-10    4.179e-10  
    0.41000     2.069e-10    4.261e-10  
    0.42000     2.113e-10    4.345e-10  
    0.43000     2.158e-10    4.429e-10  
    0.44000     2.204e-10    4.515e-10  
    0.45000     2.251e-10    4.602e-10  
    0.46000     2.299e-10    4.690e-10  
    0.47000     2.347e-10    4.779e-10  
    0.48000     2.397e-10    4.870e-10  
    0.49000     2.448e-10    4.963e-10  
    0.50000     2.499e-10    5.056e-10  
    0.51000     2.552e-10    5.151e-10  
    0.52000     2.605e-10    5.248e-10  
    0.53000     2.660e-10    5.346e-10  
    0.54000     2.715e-10    5.446e-10  
    0.55000     2.772e-10    5.547e-10  
    0.56000     2.829e-10    5.650e-10  
    0.57000     2.888e-10    5.754e-10  
    0.58000     2.947e-10    5.860e-10  
    0.59000     3.008e-10    5.968e-10  
    0.60000     3.070e-10    6.077e-10  
    0.61000     3.133e-10    6.187e-10  
    0.62000     3.197e-10    6.300e-10  
    0.63000     3.262e-10    6.414e-10  
    0.64000     3.329e-10    6.530e-10  
    0.65000     3.397e-10    6.648e-10  
    0.66000     3.465e-10    6.767e-10  
    0.67000     3.536e-10    6.888e-10  
    0.68000     3.607e-10    7.012e-10  
    0.69000     3.680e-10    7.136e-10  
    0.70000     3.753e-10    7.263e-10  
    0.71000     3.829e-10    7.392e-10  
    0.72000     3.905e-10    7.522e-10  
    0.73000     3.983e-10    7.654e-10  
    0.74000     4.062e-10    7.789e-10  
    0.75000     4.143e-10    7.925e-10  
    0.76000     4.225e-10    8.063e-10  
    0.77000     4.308e-10    8.203e-10  
    0.78000     4.393e-10    8.345e-10  
    0.79000     4.480e-10    8.490e-10  
    0.80000     4.568e-10    8.636e-10  
    0.81000     4.657e-10    8.785e-10  
    0.82000     4.748e-10    8.935e-10  
    0.83000     4.840e-10    9.088e-10  
    0.84000     4.934e-10    9.242e-10  
    0.85000     5.030e-10    9.399e-10  
    0.86000     5.127e-10    9.559e-10  
    0.87000     5.226e-10    9.720e-10  
    0.88000     5.326e-10    9.884e-10  
    0.89000     5.429e-10    1.005e-09  
    0.90000     5.532e-10    1.022e-09  
    0.91000     5.638e-10    1.039e-09  
    0.92000     5.745e-10    1.056e-09  
    0.93000     5.855e-10    1.074e-09  
    0.94000     5.965e-10    1.091e-09  
    0.95000     6.078e-10    1.109e-09  
    0.96000     6.193e-10    1.128e-09  
    0.97000     6.309e-10    1.146e-09  
    0.98000     6.428e-10    1.165e-09  
    0.99000     6.548e-10    1.184e-09  
