 ****** HSPICE -- G-2012.06 32-BIT (May 27 2012) RHEL32 ******                  
  Copyright (C) 2012 Synopsys, Inc. All Rights Reserved.                        
  Unpublished-rights reserved under US copyright laws.
  This program is protected by law and is subject to the
  terms and conditions of the license agreement from Synopsys.
  Use of this program is your acceptance to be bound by the
  license agreement. HSPICE is the trademark of Synopsys, Inc.
  Input File: idvgpmos.sp                                                       
  Command line options: -hdlpath ../code -i idvgpmos.sp -o idvgpmos
 lic:  
 lic: FLEXlm: v10.8 
 lic: USER:   sourabh              HOSTNAME: bwrcr720-2.eecs.berkeley.edu 
 lic: HOSTID:                      PID:      14759 
 lic: Using FLEXlm license file: 
 lic: 1701@sunv40z-1.eecs.berkeley.edu 
 lic: Checkout 1 hspice 
 lic: License/Maintenance for hspice will expire on 18-nov-2016/2015.06 
 lic: 1(in_use)/50(total) FLOATING license(s) on SERVER sunv40z-1.eecs.berkeley.
 lic:   
 Init: read install configuration file: /tools/synopsys/hspice/G-2012.06/hspice/meta.cfg
 **info** *pvaI* Module (bsimcmg): 5 unexpanded port, 0 init, 2015 behav, 64 contrib, 49/3015 expr(s)

 **info** *pvaI* Resizing DB size for v count = 1

 **info** *pvaI* Resizing DB size for v count = 2

 **info** *pvaI*        Has DIS (PC SB), 5 afCount

 **info** *pvaI*        0 const-G and 0 const-C, Has switch branch.

 **info** *pvaI* Module (bsimcmg): generated 4 flow node(s) during compilation.

 **info** *pvaI* #### Total 762 line-size(s), 49 expr(s), 64 contr(s), 0 init(s), 2015 behav(s), 5 port(s)

 Loading pVA library idvgpmos.pvadir/pvaRTL_linux.so...
1****** HSPICE -- G-2012.06 32-BIT (May 27 2012) RHEL32 ******                  
 ******  
 *sample netlist for bsim-mg

  ******  circuit name directory
 circuit number to circuit name directory
   number circuitname                     definition         multiplier
        0 main circuit
        1 x1.                             bsimcmg(va)        1.00 
 **info** *pvaI* Creating Verilog-A module 'bsimcmg' for X1

  
      
 *****************************************************************
 ******  option summary
 ******
 runlvl  = 3         bypass  = 2         
  Opening plot unit= 15
 file=idvgpmos.pa0                                                             

 ******  
 *sample netlist for bsim-mg

  ******  dc transfer curves tnom=  25.000 temp= -55.000 *****
x

        volt    param        param      
                    ids         -gds    
    0.50000     5.201e-10      0.       
    0.49000     5.159e-10    5.201e-08  
    0.48000     5.117e-10   -4.225e-10  
    0.47000     5.075e-10   -4.220e-10  
    0.46000     5.033e-10   -4.214e-10  
    0.45000     4.991e-10   -4.209e-10  
    0.44000     4.949e-10   -4.203e-10  
    0.43000     4.907e-10   -4.197e-10  
    0.42000     4.865e-10   -4.192e-10  
    0.41000     4.823e-10   -4.186e-10  
    0.40000     4.781e-10   -4.180e-10  
    0.39000     4.740e-10   -4.174e-10  
    0.38000     4.698e-10   -4.168e-10  
    0.37000     4.657e-10   -4.162e-10  
    0.36000     4.615e-10   -4.156e-10  
    0.35000     4.574e-10   -4.149e-10  
    0.34000     4.532e-10   -4.143e-10  
    0.33000     4.491e-10   -4.136e-10  
    0.32000     4.450e-10   -4.130e-10  
    0.31000     4.409e-10   -4.124e-10  
    0.30000     4.367e-10   -4.117e-10  
    0.29000     4.326e-10   -4.110e-10  
    0.28000     4.285e-10   -4.103e-10  
    0.27000     4.245e-10   -4.096e-10  
    0.26000     4.204e-10   -4.089e-10  
    0.25000     4.163e-10   -4.082e-10  
    0.24000     4.122e-10   -4.075e-10  
    0.23000     4.082e-10   -4.068e-10  
    0.22000     4.041e-10   -4.060e-10  
    0.21000     4.001e-10   -4.053e-10  
    0.20000     3.960e-10   -4.045e-10  
    0.19000     3.920e-10   -4.038e-10  
    0.18000     3.880e-10   -4.030e-10  
    0.17000     3.840e-10   -4.022e-10  
    0.16000     3.800e-10   -4.014e-10  
    0.15000     3.760e-10   -4.006e-10  
    0.14000     3.720e-10   -3.998e-10  
    0.13000     3.680e-10   -3.990e-10  
    0.12000     3.640e-10   -3.981e-10  
    0.11000     3.601e-10   -3.973e-10  
    0.10000     3.561e-10   -3.964e-10  
  9.0000e-02    3.522e-10   -3.956e-10  
  8.0000e-02    3.482e-10   -3.947e-10  
  7.0000e-02    3.443e-10   -3.938e-10  
  6.0000e-02    3.404e-10   -3.929e-10  
  5.0000e-02    3.365e-10   -3.920e-10  
  4.0000e-02    3.326e-10   -3.910e-10  
  3.0000e-02    3.287e-10   -3.901e-10  
  2.0000e-02    3.248e-10   -3.891e-10  
  1.0000e-02    3.209e-10   -3.881e-10  
    0.          3.171e-10   -3.870e-10  
 -1.0000e-02    3.132e-10   -3.860e-10  
 -2.0000e-02    3.094e-10   -3.848e-10  
 -3.0000e-02    3.055e-10   -3.836e-10  
 -4.0000e-02    3.017e-10   -3.823e-10  
 -5.0000e-02    2.980e-10   -3.808e-10  
 -6.0000e-02    2.942e-10   -3.791e-10  
 -7.0000e-02    2.904e-10   -3.769e-10  
 -8.0000e-02    2.867e-10   -3.741e-10  
 -9.0000e-02    2.831e-10   -3.703e-10  
   -0.10000     2.795e-10   -3.651e-10  
   -0.11000     2.761e-10   -3.574e-10  
   -0.12000     2.728e-10   -3.461e-10  
   -0.13000     2.697e-10   -3.290e-10  
   -0.14000     2.671e-10   -3.030e-10  
   -0.15000     2.651e-10   -2.628e-10  
   -0.16000     2.641e-10   -2.006e-10  
   -0.17000     2.645e-10   -1.038e-10  
   -0.18000     2.673e-10    4.686e-11  
   -0.19000     2.738e-10    2.822e-10  
   -0.20000     2.861e-10    6.497e-10  
   -0.21000     3.073e-10    1.225e-09  
   -0.22000     3.426e-10    2.124e-09  
   -0.23000     3.999e-10    3.530e-09  
   -0.24000     4.917e-10    5.732e-09  
   -0.25000     6.374e-10    9.178e-09  
   -0.26000     8.676e-10    1.457e-08  
   -0.27000     1.230e-09    2.302e-08  
   -0.28000     1.799e-09    3.623e-08  
   -0.29000     2.693e-09    5.693e-08  
   -0.30000     4.092e-09    8.932e-08  
   -0.31000     6.285e-09    1.400e-07  
   -0.32000     9.719e-09    2.193e-07  
   -0.33000     1.509e-08    3.434e-07  
   -0.34000     2.351e-08    5.376e-07  
   -0.35000     3.667e-08    8.413e-07  
   -0.36000     5.726e-08    1.316e-06  
   -0.37000     8.945e-08    2.059e-06  
   -0.38000     1.397e-07    3.219e-06  
   -0.39000     2.182e-07    5.028e-06  
   -0.40000     3.405e-07    7.848e-06  
   -0.41000     5.307e-07    1.223e-05  
   -0.42000     8.254e-07    1.902e-05  
   -0.43000     1.280e-06    2.947e-05  
   -0.44000     1.975e-06    4.544e-05  
   -0.45000     3.029e-06    6.956e-05  
   -0.46000     4.600e-06    1.053e-04  
   -0.47000     6.897e-06    1.571e-04  
   -0.48000     1.017e-05    2.297e-04  
   -0.49000     1.468e-05    3.271e-04  
   -0.50000     2.070e-05    4.515e-04  
   -0.51000     2.843e-05    6.018e-04  
   -0.52000     3.802e-05    7.733e-04  
   -0.53000     4.953e-05    9.588e-04  
   -0.54000     6.293e-05    1.150e-03  
   -0.55000     7.815e-05    1.340e-03  
   -0.56000     9.507e-05    1.522e-03  
   -0.57000     1.136e-04    1.692e-03  
   -0.58000     1.335e-04    1.849e-03  
   -0.59000     1.546e-04    1.990e-03  
   -0.60000     1.769e-04    2.116e-03  
   -0.61000     2.002e-04    2.228e-03  
   -0.62000     2.243e-04    2.328e-03  
   -0.63000     2.493e-04    2.417e-03  
   -0.64000     2.750e-04    2.496e-03  
   -0.65000     3.013e-04    2.566e-03  
   -0.66000     3.281e-04    2.629e-03  
   -0.67000     3.555e-04    2.685e-03  
   -0.68000     3.833e-04    2.736e-03  
   -0.69000     4.115e-04    2.782e-03  
   -0.70000     4.401e-04    2.823e-03  
   -0.71000     4.691e-04    2.861e-03  
   -0.72000     4.983e-04    2.895e-03  
   -0.73000     5.279e-04    2.926e-03  
   -0.74000     5.577e-04    2.954e-03  
   -0.75000     5.877e-04    2.979e-03  
   -0.76000     6.179e-04    3.002e-03  
   -0.77000     6.484e-04    3.023e-03  
   -0.78000     6.789e-04    3.042e-03  
   -0.79000     7.097e-04    3.059e-03  
   -0.80000     7.406e-04    3.075e-03  
   -0.81000     7.716e-04    3.089e-03  
   -0.82000     8.027e-04    3.101e-03  
   -0.83000     8.339e-04    3.112e-03  
   -0.84000     8.652e-04    3.122e-03  
   -0.85000     8.966e-04    3.131e-03  
   -0.86000     9.281e-04    3.139e-03  
   -0.87000     9.596e-04    3.146e-03  
   -0.88000     9.912e-04    3.152e-03  
   -0.89000     1.023e-03    3.157e-03  
   -0.90000     1.054e-03    3.161e-03  
   -0.91000     1.086e-03    3.165e-03  
   -0.92000     1.118e-03    3.168e-03  
   -0.93000     1.150e-03    3.171e-03  
   -0.94000     1.181e-03    3.173e-03  
   -0.95000     1.213e-03    3.174e-03  
   -0.96000     1.245e-03    3.175e-03  
   -0.97000     1.277e-03    3.176e-03  
   -0.98000     1.308e-03    3.176e-03  
   -0.99000     1.340e-03    3.176e-03  
   -1.00000     1.372e-03    3.175e-03  
y
-----------------------------------------------

          ***** job concluded
1****** HSPICE -- G-2012.06 32-BIT (May 27 2012) RHEL32 ******                  
 ******  
 *sample netlist for bsim-mg

  ******  job statistics summary tnom=  25.000 temp= -55.000 *****
  
  
 ******  Machine Information  ******
 CPU:
 model name	: Intel(R) Xeon(R) CPU E5-2643 0 @ 3.30GHz
 cpu MHz	: 3299.813
  
 OS:
 Linux version 2.6.32-573.7.1.el6.x86_64 (mockbuild@x86-031.build.eng.bos.redhat.com) (gcc version 4.4.7 20120313 (Red Hat 4.4.7-16) (GCC) ) #1 SMP Thu Sep 10 13:42:16 EDT 2015


  ******  HSPICE Threads Information  ******

  Command Line Threads Count :     1
  Available CPU Count        :     8
  Actual Threads Count       :     1


  ******  Circuit Statistics  ******
  # nodes       =       9 # elements   =       4
  # resistors   =       0 # capacitors =       0 # inductors   =       0
  # mutual_inds =       0 # vccs       =       0 # vcvs        =       0
  # cccs        =       0 # ccvs       =       0 # volt_srcs   =       3
  # curr_srcs   =       0 # diodes     =       0 # bjts        =       0
  # jfets       =       0 # mosfets    =       0 # U elements  =       0
  # T elements  =       0 # W elements =       0 # B elements  =       0
  # S elements  =       0 # P elements =       0 # va device   =       1
  # vector_srcs =       0 # N elements =       0


  ******  Runtime Statistics (seconds)  ******

  analysis           time    # points   tot. iter  conv.iter
  op point           0.00           1           0
  dc sweep           0.01         151         304
  readin             3.07
  errchk             0.06
  setup              0.00
  output             0.00


           peak memory used        119.21 megabytes
           total cpu time            3.15 seconds
           total elapsed time        8.67 seconds
           job started at     08:27:39 12/31/2015
           job ended   at     08:27:47 12/31/2015


 Loading pVA library idvgpmos.pvadir/pvaRTL_linux.so...
1****** HSPICE -- G-2012.06 32-BIT (May 27 2012) RHEL32 ******                  
 ******  
 *sample netlist for bsim-mg

  ******  circuit name directory
 circuit number to circuit name directory
   number circuitname                     definition         multiplier
        0 main circuit
        1 x1.                             bsimcmg(va)        1.00 
 **info** *pvaI* Creating Verilog-A module 'bsimcmg' for X1

  
      
 *****************************************************************
 ******  option summary
 ******
 runlvl  = 3         bypass  = 2         
  Opening plot unit= 15
 file=idvgpmos.pa1                                                             

 ******  
 *sample netlist for bsim-mg

  ******  dc transfer curves tnom=  25.000 temp=  27.000 *****
x

        volt    param        param      
                    ids         -gds    
    0.50000     5.831e-10      0.       
    0.49000     5.787e-10    5.831e-08  
    0.48000     5.742e-10   -4.425e-10  
    0.47000     5.698e-10   -4.421e-10  
    0.46000     5.654e-10   -4.417e-10  
    0.45000     5.610e-10   -4.413e-10  
    0.44000     5.566e-10   -4.408e-10  
    0.43000     5.522e-10   -4.404e-10  
    0.42000     5.478e-10   -4.400e-10  
    0.41000     5.434e-10   -4.395e-10  
    0.40000     5.390e-10   -4.391e-10  
    0.39000     5.346e-10   -4.386e-10  
    0.38000     5.303e-10   -4.382e-10  
    0.37000     5.259e-10   -4.377e-10  
    0.36000     5.215e-10   -4.373e-10  
    0.35000     5.172e-10   -4.368e-10  
    0.34000     5.128e-10   -4.363e-10  
    0.33000     5.085e-10   -4.358e-10  
    0.32000     5.041e-10   -4.353e-10  
    0.31000     4.998e-10   -4.348e-10  
    0.30000     4.954e-10   -4.343e-10  
    0.29000     4.911e-10   -4.338e-10  
    0.28000     4.868e-10   -4.333e-10  
    0.27000     4.824e-10   -4.328e-10  
    0.26000     4.781e-10   -4.322e-10  
    0.25000     4.738e-10   -4.317e-10  
    0.24000     4.695e-10   -4.311e-10  
    0.23000     4.652e-10   -4.305e-10  
    0.22000     4.609e-10   -4.299e-10  
    0.21000     4.566e-10   -4.294e-10  
    0.20000     4.523e-10   -4.288e-10  
    0.19000     4.481e-10   -4.281e-10  
    0.18000     4.438e-10   -4.275e-10  
    0.17000     4.395e-10   -4.268e-10  
    0.16000     4.353e-10   -4.261e-10  
    0.15000     4.310e-10   -4.253e-10  
    0.14000     4.268e-10   -4.245e-10  
    0.13000     4.226e-10   -4.235e-10  
    0.12000     4.184e-10   -4.225e-10  
    0.11000     4.142e-10   -4.213e-10  
    0.10000     4.100e-10   -4.198e-10  
  9.0000e-02    4.058e-10   -4.181e-10  
  8.0000e-02    4.017e-10   -4.160e-10  
  7.0000e-02    3.976e-10   -4.132e-10  
  6.0000e-02    3.936e-10   -4.098e-10  
  5.0000e-02    3.896e-10   -4.051e-10  
  4.0000e-02    3.857e-10   -3.990e-10  
  3.0000e-02    3.819e-10   -3.908e-10  
  2.0000e-02    3.782e-10   -3.797e-10  
  1.0000e-02    3.748e-10   -3.647e-10  
    0.          3.716e-10   -3.441e-10  
 -1.0000e-02    3.688e-10   -3.159e-10  
 -2.0000e-02    3.666e-10   -2.771e-10  
 -3.0000e-02    3.651e-10   -2.237e-10  
 -4.0000e-02    3.646e-10   -1.500e-10  
 -5.0000e-02    3.655e-10   -4.822e-11  
 -6.0000e-02    3.684e-10    9.244e-11  
 -7.0000e-02    3.740e-10    2.869e-10  
 -8.0000e-02    3.833e-10    5.561e-10  
 -9.0000e-02    3.977e-10    9.285e-10  
   -0.10000     4.193e-10    1.444e-09  
   -0.11000     4.507e-10    2.158e-09  
   -0.12000     4.959e-10    3.146e-09  
   -0.13000     5.600e-10    4.515e-09  
   -0.14000     6.504e-10    6.411e-09  
   -0.15000     7.770e-10    9.039e-09  
   -0.16000     9.540e-10    1.266e-08  
   -0.17000     1.201e-09    1.769e-08  
   -0.18000     1.544e-09    2.466e-08  
   -0.19000     2.020e-09    3.431e-08  
   -0.20000     2.682e-09    4.766e-08  
   -0.21000     3.599e-09    6.615e-08  
   -0.22000     4.871e-09    9.175e-08  
   -0.23000     6.633e-09    1.272e-07  
   -0.24000     9.074e-09    1.762e-07  
   -0.25000     1.245e-08    2.441e-07  
   -0.26000     1.713e-08    3.379e-07  
   -0.27000     2.360e-08    4.678e-07  
   -0.28000     3.255e-08    6.472e-07  
   -0.29000     4.492e-08    8.950e-07  
   -0.30000     6.201e-08    1.237e-06  
   -0.31000     8.559e-08    1.709e-06  
   -0.32000     1.181e-07    2.358e-06  
   -0.33000     1.628e-07    3.250e-06  
   -0.34000     2.242e-07    4.472e-06  
   -0.35000     3.083e-07    6.140e-06  
   -0.36000     4.229e-07    8.407e-06  
   -0.37000     5.786e-07    1.147e-05  
   -0.38000     7.886e-07    1.557e-05  
   -0.39000     1.070e-06    2.100e-05  
   -0.40000     1.442e-06    2.810e-05  
   -0.41000     1.930e-06    3.724e-05  
   -0.42000     2.560e-06    4.879e-05  
   -0.43000     3.363e-06    6.305e-05  
   -0.44000     4.368e-06    8.026e-05  
   -0.45000     5.606e-06    1.005e-04  
   -0.46000     7.106e-06    1.238e-04  
   -0.47000     8.894e-06    1.500e-04  
   -0.48000     1.099e-05    1.787e-04  
   -0.49000     1.342e-05    2.098e-04  
   -0.50000     1.619e-05    2.428e-04  
   -0.51000     1.932e-05    2.773e-04  
   -0.52000     2.282e-05    3.131e-04  
   -0.53000     2.669e-05    3.498e-04  
   -0.54000     3.094e-05    3.871e-04  
   -0.55000     3.557e-05    4.248e-04  
   -0.56000     4.058e-05    4.627e-04  
   -0.57000     4.596e-05    5.007e-04  
   -0.58000     5.172e-05    5.385e-04  
   -0.59000     5.786e-05    5.762e-04  
   -0.60000     6.437e-05    6.136e-04  
   -0.61000     7.124e-05    6.508e-04  
   -0.62000     7.848e-05    6.875e-04  
   -0.63000     8.608e-05    7.239e-04  
   -0.64000     9.403e-05    7.598e-04  
   -0.65000     1.023e-04    7.953e-04  
   -0.66000     1.110e-04    8.304e-04  
   -0.67000     1.200e-04    8.650e-04  
   -0.68000     1.293e-04    8.991e-04  
   -0.69000     1.390e-04    9.327e-04  
   -0.70000     1.489e-04    9.658e-04  
   -0.71000     1.593e-04    9.984e-04  
   -0.72000     1.699e-04    1.030e-03  
   -0.73000     1.808e-04    1.062e-03  
   -0.74000     1.920e-04    1.093e-03  
   -0.75000     2.036e-04    1.123e-03  
   -0.76000     2.154e-04    1.153e-03  
   -0.77000     2.275e-04    1.183e-03  
   -0.78000     2.399e-04    1.212e-03  
   -0.79000     2.526e-04    1.240e-03  
   -0.80000     2.655e-04    1.268e-03  
   -0.81000     2.788e-04    1.295e-03  
   -0.82000     2.922e-04    1.321e-03  
   -0.83000     3.060e-04    1.347e-03  
   -0.84000     3.199e-04    1.373e-03  
   -0.85000     3.342e-04    1.398e-03  
   -0.86000     3.486e-04    1.422e-03  
   -0.87000     3.633e-04    1.446e-03  
   -0.88000     3.782e-04    1.469e-03  
   -0.89000     3.934e-04    1.492e-03  
   -0.90000     4.087e-04    1.514e-03  
   -0.91000     4.243e-04    1.535e-03  
   -0.92000     4.401e-04    1.556e-03  
   -0.93000     4.560e-04    1.577e-03  
   -0.94000     4.722e-04    1.597e-03  
   -0.95000     4.885e-04    1.616e-03  
   -0.96000     5.051e-04    1.635e-03  
   -0.97000     5.218e-04    1.653e-03  
   -0.98000     5.386e-04    1.671e-03  
   -0.99000     5.557e-04    1.688e-03  
   -1.00000     5.729e-04    1.704e-03  
y
-----------------------------------------------

          ***** job concluded
1****** HSPICE -- G-2012.06 32-BIT (May 27 2012) RHEL32 ******                  
 ******  
 *sample netlist for bsim-mg

  ******  job statistics summary tnom=  25.000 temp=  27.000 *****
  
  
 ******  Machine Information  ******
 CPU:
 model name	: Intel(R) Xeon(R) CPU E5-2643 0 @ 3.30GHz
 cpu MHz	: 3299.813
  
 OS:
 Linux version 2.6.32-573.7.1.el6.x86_64 (mockbuild@x86-031.build.eng.bos.redhat.com) (gcc version 4.4.7 20120313 (Red Hat 4.4.7-16) (GCC) ) #1 SMP Thu Sep 10 13:42:16 EDT 2015


  ******  HSPICE Threads Information  ******

  Command Line Threads Count :     1
  Available CPU Count        :     8
  Actual Threads Count       :     1


  ******  Circuit Statistics  ******
  # nodes       =       9 # elements   =       4
  # resistors   =       0 # capacitors =       0 # inductors   =       0
  # mutual_inds =       0 # vccs       =       0 # vcvs        =       0
  # cccs        =       0 # ccvs       =       0 # volt_srcs   =       3
  # curr_srcs   =       0 # diodes     =       0 # bjts        =       0
  # jfets       =       0 # mosfets    =       0 # U elements  =       0
  # T elements  =       0 # W elements =       0 # B elements  =       0
  # S elements  =       0 # P elements =       0 # va device   =       1
  # vector_srcs =       0 # N elements =       0


  ******  Runtime Statistics (seconds)  ******

  analysis           time    # points   tot. iter  conv.iter
  op point           0.00           1           0
  dc sweep           0.02         151         304
  readin             0.01
  errchk             0.06
  setup              0.00
  output             0.00


           peak memory used        119.21 megabytes
           total cpu time            0.09 seconds
           total elapsed time        0.10 seconds
           job started at     08:27:39 12/31/2015
           job ended   at     08:27:48 12/31/2015


 Loading pVA library idvgpmos.pvadir/pvaRTL_linux.so...
1****** HSPICE -- G-2012.06 32-BIT (May 27 2012) RHEL32 ******                  
 ******  
 *sample netlist for bsim-mg

  ******  circuit name directory
