 ****** HSPICE -- G-2012.06 32-BIT (May 27 2012) RHEL32 ******                  
  Copyright (C) 2012 Synopsys, Inc. All Rights Reserved.                        
  Unpublished-rights reserved under US copyright laws.
  This program is protected by law and is subject to the
  terms and conditions of the license agreement from Synopsys.
  Use of this program is your acceptance to be bound by the
  license agreement. HSPICE is the trademark of Synopsys, Inc.
  Input File: noise.sp                                                          
  Command line options: -hdlpath ../code -i noise.sp -o noise
 lic:  
 lic: FLEXlm: v10.8 
 lic: USER:   sourabh              HOSTNAME: bwrcr720-2.eecs.berkeley.edu 
 lic: HOSTID:                      PID:      15394 
 lic: Using FLEXlm license file: 
 lic: 1701@sunv40z-1.eecs.berkeley.edu 
 lic: Checkout 1 hspice 
 lic: License/Maintenance for hspice will expire on 18-nov-2016/2015.06 
 lic: 1(in_use)/50(total) FLOATING license(s) on SERVER sunv40z-1.eecs.berkeley.
 lic:   
 Init: read install configuration file: /tools/synopsys/hspice/G-2012.06/hspice/meta.cfg
 **info** *pvaI* Module (bsimcmg): 5 unexpanded port, 0 init, 2015 behav, 64 contrib, 49/3015 expr(s)

 **info** *pvaI* Resizing DB size for v count = 1

 **info** *pvaI* Resizing DB size for v count = 2

 **info** *pvaI*        Has DIS (PC SB), 5 afCount

 **info** *pvaI*        0 const-G and 0 const-C, Has switch branch.

 **info** *pvaI* Module (bsimcmg): generated 4 flow node(s) during compilation.

 **info** *pvaI* #### Total 762 line-size(s), 49 expr(s), 64 contr(s), 0 init(s), 2015 behav(s), 5 port(s)

 Loading pVA library noise.pvadir/pvaRTL_linux.so...
1****** HSPICE -- G-2012.06 32-BIT (May 27 2012) RHEL32 ******                  
 ******  
 *samle netlist for bsim-mg

  ******  circuit name directory
 circuit number to circuit name directory
   number circuitname                     definition         multiplier
        0 main circuit
        1 x1.                             bsimcmg(va)        1.00 
 **info** *pvaI* Creating Verilog-A module 'bsimcmg' for X1

  
      
 *****************************************************************
 ******  option summary
 ******
 runlvl  = 3         bypass  = 2         
  Opening plot unit= 15
 file=noise.pa0                                                                

1****** HSPICE -- G-2012.06 32-BIT (May 27 2012) RHEL32 ******                  
 ******  
 *samle netlist for bsim-mg

  ******  operating point information tnom=  25.000 temp=  27.000 *****
 ***** operating point status is all       simulation time is     0.     
    node    =voltage      node    =voltage      node    =voltage

 +0:1       =   1.0000  0:2       =   0.      0:bulk    =   0.     
 +0:drain   =   1.0000  0:gate    =   0.5000 


 **** voltage sources

 subckt                                   
 element  0:vbs      0:vds      0:vgs     
  volts      0.         1.0000     0.5000 
  current  3.906e-11 -1.314e-04  2.085e-14
  power      0.       1.314e-04 -1.042e-14

     total voltage source power dissipation=  1.314e-04       watts



 **** resistors

 subckt             
 element  0:rload   
  r value    1.0000 
  v drop     0.     
  current    0.     
  power      0.     


 **** inductors

 subckt             
 element  0:lbias   
  l value  1.000e-03
  v drop     0.     
  current    0.     
  power      0.     

1****** HSPICE -- G-2012.06 32-BIT (May 27 2012) RHEL32 ******                  
 ******  
 *samle netlist for bsim-mg

  ******  noise analysis tnom=  25.000 temp=  27.000 *****

     frequency = 1.000e+03      hz




 **** resistor squared noise voltages (sq v/hz)




 element     0:rload
       rs    0.         
      1/f    0.         
    total    0.         
       rx    1.0126     




 **** total output noise voltage         = 8.606e-20       sq v/hz
                                         = 2.934e-10       v/rt hz
      transfer function value:
        v(drain)/vgs                     = 7.730e-04      
      equivalent input noise at vgs                           
                                         = 3.795e-07       /rt hz



 **** the results of the sqrt of integral (v**2 / freq)
      from fstart upto  1.000e+03      hz. using more freq points
      results in more accurate total noise values.

 **** total output noise voltage   =    0.            volts
 **** total equivalent input noise =    0.           



1****** HSPICE -- G-2012.06 32-BIT (May 27 2012) RHEL32 ******                  
 ******  
 *samle netlist for bsim-mg

  ******  noise analysis tnom=  25.000 temp=  27.000 *****

     frequency = 1.232e+03      hz




 **** resistor squared noise voltages (sq v/hz)




 element     0:rload
       rs    0.         
      1/f    0.         
    total    0.         
       rx    1.0083     




 **** total output noise voltage         = 6.863e-20       sq v/hz
                                         = 2.620e-10       v/rt hz
      transfer function value:
        v(drain)/vgs                     = 7.664e-04      
      equivalent input noise at vgs                           
                                         = 3.418e-07       /rt hz



 **** the results of the sqrt of integral (v**2 / freq)
      from fstart upto  1.232e+03      hz. using more freq points
      results in more accurate total noise values.

 **** total output noise voltage   =  4.244e-09       volts
 **** total equivalent input noise =  5.511e-06      



1****** HSPICE -- G-2012.06 32-BIT (May 27 2012) RHEL32 ******                  
 ******  
 *samle netlist for bsim-mg

  ******  noise analysis tnom=  25.000 temp=  27.000 *****

     frequency = 1.519e+03      hz




 **** resistor squared noise voltages (sq v/hz)




 element     0:rload
       rs    0.         
      1/f    0.         
    total    0.         
       rx    1.0054     




 **** total output noise voltage         = 5.505e-20       sq v/hz
                                         = 2.346e-10       v/rt hz
      transfer function value:
        v(drain)/vgs                     = 7.621e-04      
      equivalent input noise at vgs                           
                                         = 3.079e-07       /rt hz



 **** the results of the sqrt of integral (v**2 / freq)
      from fstart upto  1.519e+03      hz. using more freq points
      results in more accurate total noise values.

 **** total output noise voltage   =  5.980e-09       volts
 **** total equivalent input noise =  7.794e-06      



1****** HSPICE -- G-2012.06 32-BIT (May 27 2012) RHEL32 ******                  
 ******  
 *samle netlist for bsim-mg

  ******  noise analysis tnom=  25.000 temp=  27.000 *****

     frequency = 1.873e+03      hz




 **** resistor squared noise voltages (sq v/hz)




 element     0:rload
       rs    0.         
      1/f    0.         
    total    0.         
       rx    1.0036     




 **** total output noise voltage         = 4.432e-20       sq v/hz
                                         = 2.105e-10       v/rt hz
      transfer function value:
        v(drain)/vgs                     = 7.593e-04      
      equivalent input noise at vgs                           
                                         = 2.773e-07       /rt hz



 **** the results of the sqrt of integral (v**2 / freq)
      from fstart upto  1.873e+03      hz. using more freq points
      results in more accurate total noise values.

 **** total output noise voltage   =  7.304e-09       volts
 **** total equivalent input noise =  9.546e-06      



1****** HSPICE -- G-2012.06 32-BIT (May 27 2012) RHEL32 ******                  
 ******  
 *samle netlist for bsim-mg

  ******  noise analysis tnom=  25.000 temp=  27.000 *****

     frequency = 2.310e+03      hz




 **** resistor squared noise voltages (sq v/hz)




 element     0:rload
       rs    0.         
      1/f    0.         
    total    0.         
       rx    1.0023     




 **** total output noise voltage         = 3.578e-20       sq v/hz
                                         = 1.892e-10       v/rt hz
      transfer function value:
        v(drain)/vgs                     = 7.575e-04      
      equivalent input noise at vgs                           
                                         = 2.497e-07       /rt hz



 **** the results of the sqrt of integral (v**2 / freq)
      from fstart upto  2.310e+03      hz. using more freq points
      results in more accurate total noise values.

 **** total output noise voltage   =  8.416e-09       volts
 **** total equivalent input noise =  1.102e-05      



1****** HSPICE -- G-2012.06 32-BIT (May 27 2012) RHEL32 ******                  
 ******  
 *samle netlist for bsim-mg

  ******  noise analysis tnom=  25.000 temp=  27.000 *****

     frequency = 2.848e+03      hz




 **** resistor squared noise voltages (sq v/hz)




 element     0:rload
       rs    0.         
      1/f    0.         
    total    0.         
       rx    1.0015     




 **** total output noise voltage         = 2.893e-20       sq v/hz
                                         = 1.701e-10       v/rt hz
      transfer function value:
        v(drain)/vgs                     = 7.562e-04      
      equivalent input noise at vgs                           
                                         = 2.249e-07       /rt hz



 **** the results of the sqrt of integral (v**2 / freq)
      from fstart upto  2.848e+03      hz. using more freq points
      results in more accurate total noise values.

 **** total output noise voltage   =  9.393e-09       volts
 **** total equivalent input noise =  1.232e-05      



1****** HSPICE -- G-2012.06 32-BIT (May 27 2012) RHEL32 ******                  
 ******  
 *samle netlist for bsim-mg

  ******  noise analysis tnom=  25.000 temp=  27.000 *****

     frequency = 3.511e+03      hz




 **** resistor squared noise voltages (sq v/hz)




 element     0:rload
       rs    0.         
      1/f    0.         
    total    0.         
       rx    1.0010     




 **** total output noise voltage         = 2.342e-20       sq v/hz
                                         = 1.530e-10       v/rt hz
      transfer function value:
        v(drain)/vgs                     = 7.554e-04      
      equivalent input noise at vgs                           
                                         = 2.026e-07       /rt hz



 **** the results of the sqrt of integral (v**2 / freq)
      from fstart upto  3.511e+03      hz. using more freq points
      results in more accurate total noise values.

 **** total output noise voltage   =  1.028e-08       volts
 **** total equivalent input noise =  1.350e-05      



1****** HSPICE -- G-2012.06 32-BIT (May 27 2012) RHEL32 ******                  
 ******  
 *samle netlist for bsim-mg

  ******  noise analysis tnom=  25.000 temp=  27.000 *****

     frequency = 4.328e+03      hz




 **** resistor squared noise voltages (sq v/hz)




 element     0:rload
       rs    0.         
      1/f    0.         
    total    0.         
       rx    1.0007     




 **** total output noise voltage         = 1.897e-20       sq v/hz
                                         = 1.377e-10       v/rt hz
      transfer function value:
        v(drain)/vgs                     = 7.549e-04      
      equivalent input noise at vgs                           
                                         = 1.825e-07       /rt hz



 **** the results of the sqrt of integral (v**2 / freq)
      from fstart upto  4.328e+03      hz. using more freq points
      results in more accurate total noise values.

 **** total output noise voltage   =  1.109e-08       volts
 **** total equivalent input noise =  1.458e-05      



1****** HSPICE -- G-2012.06 32-BIT (May 27 2012) RHEL32 ******                  
 ******  
 *samle netlist for bsim-mg

  ******  noise analysis tnom=  25.000 temp=  27.000 *****

     frequency = 5.336e+03      hz




 **** resistor squared noise voltages (sq v/hz)




 element     0:rload
       rs    0.         
      1/f    0.         
    total    0.         
       rx    1.0004     




 **** total output noise voltage         = 1.538e-20       sq v/hz
                                         = 1.240e-10       v/rt hz
      transfer function value:
        v(drain)/vgs                     = 7.545e-04      
      equivalent input noise at vgs                           
                                         = 1.643e-07       /rt hz



 **** the results of the sqrt of integral (v**2 / freq)
      from fstart upto  5.336e+03      hz. using more freq points
      results in more accurate total noise values.

 **** total output noise voltage   =  1.184e-08       volts
 **** total equivalent input noise =  1.559e-05      



1****** HSPICE -- G-2012.06 32-BIT (May 27 2012) RHEL32 ******                  
 ******  
 *samle netlist for bsim-mg

  ******  noise analysis tnom=  25.000 temp=  27.000 *****

     frequency = 6.579e+03      hz




 **** resistor squared noise voltages (sq v/hz)




 element     0:rload
       rs    0.         
      1/f    0.         
    total    0.         
       rx    1.0003     




 **** total output noise voltage         = 1.247e-20       sq v/hz
                                         = 1.117e-10       v/rt hz
      transfer function value:
        v(drain)/vgs                     = 7.543e-04      
      equivalent input noise at vgs                           
                                         = 1.480e-07       /rt hz



 **** the results of the sqrt of integral (v**2 / freq)
      from fstart upto  6.579e+03      hz. using more freq points
      results in more accurate total noise values.

 **** total output noise voltage   =  1.255e-08       volts
 **** total equivalent input noise =  1.654e-05      



1****** HSPICE -- G-2012.06 32-BIT (May 27 2012) RHEL32 ******                  
 ******  
 *samle netlist for bsim-mg

  ******  noise analysis tnom=  25.000 temp=  27.000 *****

     frequency = 8.111e+03      hz




 **** resistor squared noise voltages (sq v/hz)




 element     0:rload
       rs    0.         
      1/f    0.         
    total    0.         
       rx    1.0002     




 **** total output noise voltage         = 1.011e-20       sq v/hz
                                         = 1.005e-10       v/rt hz
      transfer function value:
        v(drain)/vgs                     = 7.542e-04      
      equivalent input noise at vgs                           
                                         = 1.333e-07       /rt hz



 **** the results of the sqrt of integral (v**2 / freq)
      from fstart upto  8.111e+03      hz. using more freq points
      results in more accurate total noise values.

 **** total output noise voltage   =  1.322e-08       volts
 **** total equivalent input noise =  1.743e-05      



1****** HSPICE -- G-2012.06 32-BIT (May 27 2012) RHEL32 ******                  
 ******  
 *samle netlist for bsim-mg

  ******  noise analysis tnom=  25.000 temp=  27.000 *****

     frequency = 1.000e+04      hz




 **** resistor squared noise voltages (sq v/hz)




 element     0:rload
       rs    0.         
      1/f    0.         
    total    0.         
       rx    1.0001     




 **** total output noise voltage         = 8.200e-21       sq v/hz
                                         = 9.055e-11       v/rt hz
      transfer function value:
        v(drain)/vgs                     = 7.541e-04      
      equivalent input noise at vgs                           
                                         = 1.201e-07       /rt hz



 **** the results of the sqrt of integral (v**2 / freq)
      from fstart upto  1.000e+04      hz. using more freq points
      results in more accurate total noise values.

 **** total output noise voltage   =  1.386e-08       volts
 **** total equivalent input noise =  1.828e-05      



1****** HSPICE -- G-2012.06 32-BIT (May 27 2012) RHEL32 ******                  
 ******  
 *samle netlist for bsim-mg

  ******  noise analysis tnom=  25.000 temp=  27.000 *****

     frequency = 1.232e+04      hz




 **** resistor squared noise voltages (sq v/hz)




 element     0:rload
       rs    0.         
      1/f    0.         
    total    0.         
       rx    1.0001     




 **** total output noise voltage         = 6.652e-21       sq v/hz
                                         = 8.156e-11       v/rt hz
      transfer function value:
        v(drain)/vgs                     = 7.540e-04      
      equivalent input noise at vgs                           
                                         = 1.082e-07       /rt hz



 **** the results of the sqrt of integral (v**2 / freq)
      from fstart upto  1.232e+04      hz. using more freq points
      results in more accurate total noise values.

 **** total output noise voltage   =  1.447e-08       volts
 **** total equivalent input noise =  1.910e-05      



1****** HSPICE -- G-2012.06 32-BIT (May 27 2012) RHEL32 ******                  
 ******  
 *samle netlist for bsim-mg

  ******  noise analysis tnom=  25.000 temp=  27.000 *****

     frequency = 1.519e+04      hz




 **** resistor squared noise voltages (sq v/hz)




 element     0:rload
       rs    0.         
      1/f    0.         
    total    0.         
       rx    1.0000     




 **** total output noise voltage         = 5.397e-21       sq v/hz
                                         = 7.347e-11       v/rt hz
      transfer function value:
        v(drain)/vgs                     = 7.540e-04      
      equivalent input noise at vgs                           
                                         = 9.744e-08       /rt hz



 **** the results of the sqrt of integral (v**2 / freq)
      from fstart upto  1.519e+04      hz. using more freq points
      results in more accurate total noise values.

 **** total output noise voltage   =  1.506e-08       volts
 **** total equivalent input noise =  1.988e-05      



1****** HSPICE -- G-2012.06 32-BIT (May 27 2012) RHEL32 ******                  
 ******  
 *samle netlist for bsim-mg

  ******  noise analysis tnom=  25.000 temp=  27.000 *****

     frequency = 1.873e+04      hz




 **** resistor squared noise voltages (sq v/hz)




 element     0:rload
       rs    0.         
      1/f    0.         
    total    0.         
       rx    1.0000     




 **** total output noise voltage         = 4.380e-21       sq v/hz
                                         = 6.618e-11       v/rt hz
      transfer function value:
        v(drain)/vgs                     = 7.539e-04      
      equivalent input noise at vgs                           
                                         = 8.778e-08       /rt hz



 **** the results of the sqrt of integral (v**2 / freq)
      from fstart upto  1.873e+04      hz. using more freq points
      results in more accurate total noise values.

 **** total output noise voltage   =  1.562e-08       volts
 **** total equivalent input noise =  2.063e-05      



1****** HSPICE -- G-2012.06 32-BIT (May 27 2012) RHEL32 ******                  
 ******  
 *samle netlist for bsim-mg

  ******  noise analysis tnom=  25.000 temp=  27.000 *****

     frequency = 2.310e+04      hz




 **** resistor squared noise voltages (sq v/hz)




 element     0:rload
       rs    0.         
      1/f    0.         
    total    0.         
       rx    1.0000     




 **** total output noise voltage         = 3.554e-21       sq v/hz
                                         = 5.962e-11       v/rt hz
      transfer function value:
        v(drain)/vgs                     = 7.539e-04      
      equivalent input noise at vgs                           
                                         = 7.908e-08       /rt hz



 **** the results of the sqrt of integral (v**2 / freq)
      from fstart upto  2.310e+04      hz. using more freq points
      results in more accurate total noise values.

