 ****** HSPICE -- G-2012.06 32-BIT (May 27 2012) RHEL32 ******                  
  Copyright (C) 2012 Synopsys, Inc. All Rights Reserved.                        
  Unpublished-rights reserved under US copyright laws.
  This program is protected by law and is subject to the
  terms and conditions of the license agreement from Synopsys.
  Use of this program is your acceptance to be bound by the
  license agreement. HSPICE is the trademark of Synopsys, Inc.
  Input File: idvdpmos.sp                                                       
  Command line options: -hdlpath ../code -i idvdpmos.sp -o idvdpmos
 lic:  
 lic: FLEXlm: v10.8 
 lic: USER:   navidp               HOSTNAME: intelr900-1.EECS.Berkeley.EDU 
 lic: HOSTID: 0022197fa591         PID:      25070 
 lic: Using FLEXlm license file: 
 lic: 1701@sunv40z-1.eecs.berkeley.edu 
 lic: Checkout 1 hspice 
 lic: License/Maintenance for hspice will expire on 19-dec-2013/2013.03 
 lic: 3(in_use)/50(total) FLOATING license(s) on SERVER sunv40z-1.eecs.berkeley.
 lic:   
 Init: read install configuration file: /tools/synopsys/hspice/G-2012.06/hspice/meta.cfg
 **info** *pvaI* Module (bsimcmg): 4 unexpanded port, 0 init, 2075 behav, 47 contrib, 63/3242 expr(s)

 **info** *pvaI* Resizing DB size for v count = 1

 **info** *pvaI* Resizing DB size for v count = 2

 **info** *pvaI*        Has DIS (ST SB), 4 afCount

 **info** *pvaI*        0 const-G and 0 const-C, Has switch branch.

 **info** *pvaI* Module (bsimcmg): generated 0 flow node(s) during compilation.

 **info** *pvaI* #### Total 697 line-size(s), 63 expr(s), 47 contr(s), 0 init(s), 2075 behav(s), 4 port(s)

 Loading pVA library idvdpmos.pvadir/pvaRTL_linux.so...
1****** HSPICE -- G-2012.06 32-BIT (May 27 2012) RHEL32 ******                  
 ******  
 *sample netlist for bsim-mg

  ******  circuit name directory
 circuit number to circuit name directory
   number circuitname                     definition         multiplier
        0 main circuit
        1 x1.                             bsimcmg(va)        1.00 
 **info** *pvaI* Creating Verilog-A module 'bsimcmg' for X1

  
      
 *****************************************************************
 ******  option summary
 ******
 runlvl  = 3         bypass  = 2         
  Opening plot unit= 15
 file=idvdpmos.pa0                                                             

 ******  
 *sample netlist for bsim-mg

  ******  dc transfer curves tnom=  25.000 temp=  27.000 *****

   *** source        0:vgs =    0.            ***

x

        volt    param        param      
                    ids         -gds    
    0.            0.           0.       
 -1.0000e-02    1.126e-12      0.       
 -2.0000e-02    1.900e-12    1.126e-10  
 -3.0000e-02    2.423e-12    7.736e-11  
 -4.0000e-02    2.771e-12    5.230e-11  
 -5.0000e-02    3.013e-12    3.475e-11  
 -6.0000e-02    3.183e-12    2.422e-11  
 -7.0000e-02    3.300e-12    1.702e-11  
 -8.0000e-02    3.396e-12    1.168e-11  
 -9.0000e-02    3.477e-12    9.663e-12  
   -0.10000     3.556e-12    8.015e-12  
   -0.11000     3.613e-12    7.901e-12  
   -0.12000     3.656e-12    5.741e-12  
   -0.13000     3.704e-12    4.263e-12  
   -0.14000     3.747e-12    4.832e-12  
   -0.15000     3.803e-12    4.320e-12  
   -0.16000     3.856e-12    5.571e-12  
   -0.17000     3.879e-12    5.343e-12  
   -0.18000     3.920e-12    2.274e-12  
   -0.19000     3.989e-12    4.093e-12  
   -0.20000     4.007e-12    6.935e-12  
   -0.21000     4.047e-12    1.819e-12  
   -0.22000     4.087e-12    3.979e-12  
   -0.23000     4.127e-12    3.979e-12  
   -0.24000     4.167e-12    3.979e-12  
   -0.25000     4.206e-12    3.979e-12  
   -0.26000     4.247e-12    3.979e-12  
   -0.27000     4.288e-12    4.093e-12  
   -0.28000     4.329e-12    4.093e-12  
   -0.29000     4.370e-12    4.093e-12  
   -0.30000     4.388e-12    4.093e-12  
   -0.31000     4.430e-12    1.819e-12  
   -0.32000     4.472e-12    4.206e-12  
   -0.33000     4.515e-12    4.206e-12  
   -0.34000     4.595e-12    4.206e-12  
   -0.35000     4.638e-12    8.072e-12  
   -0.36000     4.682e-12    4.320e-12  
   -0.37000     4.668e-12    4.320e-12  
   -0.38000     4.754e-12   -1.364e-12  
   -0.39000     4.799e-12    8.640e-12  
   -0.40000     4.843e-12    4.434e-12  
   -0.41000     4.877e-12    4.434e-12  
   -0.42000     4.923e-12    3.411e-12  
   -0.43000     4.968e-12    4.547e-12  
   -0.44000     5.064e-12    4.547e-12  
   -0.45000     5.053e-12    9.550e-12  
   -0.46000     5.100e-12   -1.023e-12  
   -0.47000     5.200e-12    4.661e-12  
   -0.48000     5.248e-12    1.000e-11  
   -0.49000     5.239e-12    4.775e-12  
   -0.50000     5.343e-12   -9.095e-13  
   -0.51000     5.392e-12    1.046e-11  
   -0.52000     5.384e-12    4.889e-12  
   -0.53000     5.493e-12   -7.958e-13  
   -0.54000     5.543e-12    1.091e-11  
   -0.55000     5.593e-12    5.002e-12  
   -0.56000     5.593e-12    5.002e-12  
   -0.57000     5.645e-12   -2.100e-24  
   -0.58000     5.762e-12    5.116e-12  
   -0.59000     5.814e-12    1.171e-11  
   -0.60000     5.866e-12    5.230e-12  
   -0.61000     5.874e-12    5.230e-12  
   -0.62000     5.928e-12    7.958e-13  
   -0.63000     5.981e-12    5.343e-12  
   -0.64000     6.107e-12    5.343e-12  
   -0.65000     6.048e-12    1.262e-11  
   -0.66000     6.178e-12   -5.912e-12  
   -0.67000     6.233e-12    1.296e-11  
   -0.68000     6.289e-12    5.571e-12  
   -0.69000     6.310e-12    5.571e-12  
   -0.70000     6.366e-12    2.046e-12  
   -0.71000     6.504e-12    5.684e-12  
   -0.72000     6.562e-12    1.376e-11  
   -0.73000     6.589e-12    5.798e-12  
   -0.74000     6.648e-12    2.728e-12  
   -0.75000     6.679e-12    5.912e-12  
   -0.76000     6.798e-12    3.070e-12  
   -0.77000     6.809e-12    1.194e-11  
   -0.78000     6.912e-12    1.023e-12  
   -0.79000     6.909e-12    1.035e-11  
   -0.80000     6.980e-12   -3.411e-13  
   -0.81000     7.155e-12    7.162e-12  
   -0.82000     7.096e-12    1.751e-11  
   -0.83000     7.242e-12   -5.912e-12  
   -0.84000     7.294e-12    1.455e-11  
   -0.85000     7.446e-12    5.230e-12  
   -0.86000     7.494e-12    1.523e-11  
   -0.87000     7.668e-12    4.775e-12  
   -0.88000     7.958e-12    1.739e-11  
   -0.89000     8.055e-12    2.899e-11  
   -0.90000     8.288e-12    9.663e-12  
   -0.91000     8.444e-12    2.331e-11  
   -0.92000     8.731e-12    1.558e-11  
   -0.93000     8.946e-12    2.876e-11  
   -0.94000     9.309e-12    2.149e-11  
   -0.95000     9.601e-12    3.627e-11  
   -0.96000     9.932e-12    2.922e-11  
   -0.97000     1.031e-11    3.308e-11  
   -0.98000     1.062e-11    3.763e-11  
   -0.99000     1.108e-11    3.081e-11  
   -1.00000     1.148e-11    4.661e-11  
y
-----------------------------------------------
 ******  
 *sample netlist for bsim-mg

  ******  dc transfer curves tnom=  25.000 temp=  27.000 *****

   *** source        0:vgs =   -0.1000        ***

x

        volt    param        param      
                    ids         -gds    
    0.         -1.330e-14      0.       
 -1.0000e-02    4.088e-11   -1.150e-09  
 -2.0000e-02    6.891e-11    4.089e-09  
 -3.0000e-02    8.777e-11    2.803e-09  
 -4.0000e-02    1.004e-10    1.886e-09  
 -5.0000e-02    1.090e-10    1.266e-09  
 -6.0000e-02    1.151e-10    8.603e-10  
 -7.0000e-02    1.194e-10    6.022e-10  
 -8.0000e-02    1.228e-10    4.386e-10  
 -9.0000e-02    1.254e-10    3.327e-10  
   -0.10000     1.277e-10    2.665e-10  
   -0.11000     1.296e-10    2.237e-10  
   -0.12000     1.313e-10    1.917e-10  
   -0.13000     1.329e-10    1.749e-10  
   -0.14000     1.344e-10    1.609e-10  
   -0.15000     1.359e-10    1.487e-10  
   -0.16000     1.373e-10    1.437e-10  
   -0.17000     1.386e-10    1.392e-10  
   -0.18000     1.400e-10    1.380e-10  
   -0.19000     1.413e-10    1.320e-10  
   -0.20000     1.426e-10    1.318e-10  
   -0.21000     1.439e-10    1.309e-10  
   -0.22000     1.452e-10    1.301e-10  
   -0.23000     1.465e-10    1.271e-10  
   -0.24000     1.477e-10    1.306e-10  
   -0.25000     1.491e-10    1.274e-10  
   -0.26000     1.504e-10    1.309e-10  
   -0.27000     1.517e-10    1.352e-10  
   -0.28000     1.529e-10    1.259e-10  
   -0.29000     1.543e-10    1.283e-10  
   -0.30000     1.556e-10    1.342e-10  
   -0.31000     1.569e-10    1.293e-10  
   -0.32000     1.582e-10    1.328e-10  
   -0.33000     1.596e-10    1.307e-10  
   -0.34000     1.610e-10    1.381e-10  
   -0.35000     1.623e-10    1.365e-10  
   -0.36000     1.636e-10    1.292e-10  
   -0.37000     1.650e-10    1.391e-10  
   -0.38000     1.664e-10    1.362e-10  
   -0.39000     1.678e-10    1.422e-10  
   -0.40000     1.692e-10    1.340e-10  
   -0.41000     1.706e-10    1.443e-10  
   -0.42000     1.720e-10    1.377e-10  
   -0.43000     1.735e-10    1.425e-10  
   -0.44000     1.749e-10    1.465e-10  
   -0.45000     1.763e-10    1.409e-10  
   -0.46000     1.778e-10    1.458e-10  
   -0.47000     1.792e-10    1.446e-10  
   -0.48000     1.807e-10    1.388e-10  
   -0.49000     1.822e-10    1.549e-10  
   -0.50000     1.837e-10    1.488e-10  
   -0.51000     1.852e-10    1.484e-10  
   -0.52000     1.868e-10    1.537e-10  
   -0.53000     1.882e-10    1.590e-10  
   -0.54000     1.898e-10    1.359e-10  
   -0.55000     1.914e-10    1.641e-10  
   -0.56000     1.928e-10    1.581e-10  
   -0.57000     1.945e-10    1.408e-10  
   -0.58000     1.961e-10    1.641e-10  
   -0.59000     1.976e-10    1.632e-10  
   -0.60000     1.992e-10    1.527e-10  
   -0.61000     2.009e-10    1.630e-10  
   -0.62000     2.024e-10    1.642e-10  
   -0.63000     2.040e-10    1.515e-10  
   -0.64000     2.057e-10    1.643e-10  
   -0.65000     2.074e-10    1.702e-10  
   -0.66000     2.091e-10    1.647e-10  
   -0.67000     2.106e-10    1.706e-10  
   -0.68000     2.123e-10    1.537e-10  
   -0.69000     2.141e-10    1.711e-10  
   -0.70000     2.157e-10    1.770e-10  
   -0.71000     2.175e-10    1.603e-10  
   -0.72000     2.193e-10    1.776e-10  
   -0.73000     2.210e-10    1.805e-10  
   -0.74000     2.227e-10    1.671e-10  
   -0.75000     2.246e-10    1.732e-10  
   -0.76000     2.262e-10    1.878e-10  
   -0.77000     2.281e-10    1.628e-10  
   -0.78000     2.299e-10    1.891e-10  
   -0.79000     2.317e-10    1.841e-10  
   -0.80000     2.336e-10    1.791e-10  
   -0.81000     2.353e-10    1.878e-10  
   -0.82000     2.373e-10    1.692e-10  
   -0.83000     2.391e-10    1.984e-10  
   -0.84000     2.410e-10    1.820e-10  
   -0.85000     2.430e-10    1.865e-10  
   -0.86000     2.448e-10    2.043e-10  
   -0.87000     2.467e-10    1.764e-10  
   -0.88000     2.487e-10    1.923e-10  
   -0.89000     2.507e-10    1.970e-10  
   -0.90000     2.526e-10    2.007e-10  
   -0.91000     2.545e-10    1.959e-10  
   -0.92000     2.566e-10    1.889e-10  
   -0.93000     2.586e-10    2.063e-10  
   -0.94000     2.607e-10    2.005e-10  
   -0.95000     2.628e-10    2.075e-10  
   -0.96000     2.649e-10    2.149e-10  
   -0.97000     2.671e-10    2.109e-10  
   -0.98000     2.693e-10    2.194e-10  
   -0.99000     2.716e-10    2.171e-10  
   -1.00000     2.736e-10    2.265e-10  
y
-----------------------------------------------
 ******  
 *sample netlist for bsim-mg

  ******  dc transfer curves tnom=  25.000 temp=  27.000 *****

   *** source        0:vgs =   -0.2000        ***

x

        volt    param        param      
                    ids         -gds    
    0.         -2.015e-14      0.       
 -1.0000e-02    1.479e-09   -2.736e-08  
 -2.0000e-02    2.493e-09    1.479e-07  
 -3.0000e-02    3.176e-09    1.014e-07  
 -4.0000e-02    3.633e-09    6.826e-08  
 -5.0000e-02    3.944e-09    4.574e-08  
 -6.0000e-02    4.159e-09    3.101e-08  
 -7.0000e-02    4.315e-09    2.158e-08  
 -8.0000e-02    4.433e-09    1.559e-08  
 -9.0000e-02    4.526e-09    1.177e-08  
   -0.10000     4.603e-09    9.300e-09  
   -0.11000     4.669e-09    7.683e-09  
   -0.12000     4.727e-09    6.596e-09  
   -0.13000     4.781e-09    5.857e-09  
   -0.14000     4.831e-09    5.340e-09  
   -0.15000     4.878e-09    4.978e-09  
   -0.16000     4.923e-09    4.711e-09  
   -0.17000     4.967e-09    4.522e-09  
   -0.18000     5.009e-09    4.384e-09  
   -0.19000     5.052e-09    4.280e-09  
   -0.20000     5.093e-09    4.208e-09  
   -0.21000     5.134e-09    4.154e-09  
   -0.22000     5.175e-09    4.114e-09  
   -0.23000     5.216e-09    4.089e-09  
   -0.24000     5.256e-09    4.070e-09  
   -0.25000     5.297e-09    4.058e-09  
   -0.26000     5.337e-09    4.053e-09  
   -0.27000     5.378e-09    4.053e-09  
   -0.28000     5.419e-09    4.053e-09  
   -0.29000     5.459e-09    4.065e-09  
   -0.30000     5.500e-09    4.077e-09  
   -0.31000     5.541e-09    4.081e-09  
   -0.32000     5.582e-09    4.094e-09  
   -0.33000     5.624e-09    4.109e-09  
   -0.34000     5.665e-09    4.130e-09  
   -0.35000     5.707e-09    4.134e-09  
   -0.36000     5.748e-09    4.169e-09  
   -0.37000     5.790e-09    4.173e-09  
   -0.38000     5.832e-09    4.193e-09  
   -0.39000     5.875e-09    4.222e-09  
   -0.40000     5.917e-09    4.240e-09  
   -0.41000     5.960e-09    4.254e-09  
   -0.42000     6.003e-09    4.276e-09  
   -0.43000     6.046e-09    4.293e-09  
   -0.44000     6.090e-09    4.325e-09  
   -0.45000     6.133e-09    4.348e-09  
   -0.46000     6.177e-09    4.360e-09  
   -0.47000     6.221e-09    4.395e-09  
   -0.48000     6.266e-09    4.411e-09  
   -0.49000     6.310e-09    4.436e-09  
   -0.50000     6.355e-09    4.463e-09  
   -0.51000     6.400e-09    4.480e-09  
   -0.52000     6.446e-09    4.506e-09  
   -0.53000     6.491e-09    4.533e-09  
   -0.54000     6.537e-09    4.557e-09  
   -0.55000     6.583e-09    4.582e-09  
   -0.56000     6.629e-09    4.604e-09  
   -0.57000     6.676e-09    4.628e-09  
   -0.58000     6.723e-09    4.658e-09  
   -0.59000     6.770e-09    4.685e-09  
   -0.60000     6.817e-09    4.714e-09  
   -0.61000     6.865e-09    4.730e-09  
   -0.62000     6.913e-09    4.758e-09  
   -0.63000     6.961e-09    4.788e-09  
   -0.64000     7.009e-09    4.812e-09  
   -0.65000     7.058e-09    4.825e-09  
   -0.66000     7.107e-09    4.879e-09  
   -0.67000     7.156e-09    4.888e-09  
   -0.68000     7.205e-09    4.909e-09  
   -0.69000     7.255e-09    4.951e-09  
   -0.70000     7.305e-09    4.964e-09  
   -0.71000     7.355e-09    5.009e-09  
   -0.72000     7.406e-09    5.025e-09  
   -0.73000     7.457e-09    5.064e-09  
   -0.74000     7.508e-09    5.082e-09  
   -0.75000     7.559e-09    5.109e-09  
   -0.76000     7.611e-09    5.141e-09  
   -0.77000     7.663e-09    5.163e-09  
   -0.78000     7.715e-09    5.197e-09  
   -0.79000     7.768e-09    5.219e-09  
   -0.80000     7.820e-09    5.255e-09  
   -0.81000     7.874e-09    5.282e-09  
   -0.82000     7.927e-09    5.319e-09  
   -0.83000     7.981e-09    5.348e-09  
   -0.84000     8.035e-09    5.355e-09  
   -0.85000     8.089e-09    5.409e-09  
   -0.86000     8.144e-09    5.428e-09  
   -0.87000     8.198e-09    5.462e-09  
   -0.88000     8.254e-09    5.474e-09  
   -0.89000     8.309e-09    5.533e-09  
   -0.90000     8.365e-09    5.546e-09  
   -0.91000     8.421e-09    5.573e-09  
   -0.92000     8.477e-09    5.601e-09  
   -0.93000     8.534e-09    5.652e-09  
   -0.94000     8.591e-09    5.661e-09  
   -0.95000     8.648e-09    5.702e-09  
   -0.96000     8.706e-09    5.734e-09  
   -0.97000     8.764e-09    5.767e-09  
   -0.98000     8.822e-09    5.800e-09  
   -0.99000     8.881e-09    5.823e-09  
   -1.00000     8.940e-09    5.848e-09  
y
-----------------------------------------------
 ******  
 *sample netlist for bsim-mg

  ******  dc transfer curves tnom=  25.000 temp=  27.000 *****

   *** source        0:vgs =   -0.3000        ***

x

        volt    param        param      
                    ids         -gds    
    0.         -2.930e-14      0.       
 -1.0000e-02    4.891e-08   -8.940e-07  
 -2.0000e-02    8.328e-08    4.891e-06  
 -3.0000e-02    1.068e-07    3.437e-06  
 -4.0000e-02    1.228e-07    2.355e-06  
 -5.0000e-02    1.337e-07    1.596e-06  
 -6.0000e-02    1.412e-07    1.088e-06  
 -7.0000e-02    1.467e-07    7.566e-07  
 -8.0000e-02    1.507e-07    5.418e-07  
 -9.0000e-02    1.538e-07    4.027e-07  
   -0.10000     1.563e-07    3.116e-07  
   -0.11000     1.584e-07    2.510e-07  
   -0.12000     1.602e-07    2.098e-07  
   -0.13000     1.618e-07    1.812e-07  
   -0.14000     1.633e-07    1.610e-07  
   -0.15000     1.647e-07    1.464e-07  
   -0.16000     1.659e-07    1.356e-07  
   -0.17000     1.671e-07    1.277e-07  
   -0.18000     1.683e-07    1.216e-07  
   -0.19000     1.695e-07    1.170e-07  
   -0.20000     1.706e-07    1.134e-07  
   -0.21000     1.716e-07    1.107e-07  
   -0.22000     1.727e-07    1.085e-07  
   -0.23000     1.738e-07    1.068e-07  
   -0.24000     1.748e-07    1.054e-07  
   -0.25000     1.758e-07    1.043e-07  
   -0.26000     1.769e-07    1.035e-07  
   -0.27000     1.779e-07    1.028e-07  
   -0.28000     1.789e-07    1.023e-07  
   -0.29000     1.799e-07    1.019e-07  
   -0.30000     1.809e-07    1.016e-07  
   -0.31000     1.820e-07    1.014e-07  
   -0.32000     1.830e-07    1.013e-07  
   -0.33000     1.840e-07    1.012e-07  
   -0.34000     1.850e-07    1.012e-07  
   -0.35000     1.860e-07    1.012e-07  
   -0.36000     1.870e-07    1.012e-07  
   -0.37000     1.880e-07    1.013e-07  
   -0.38000     1.890e-07    1.014e-07  
   -0.39000     1.901e-07    1.015e-07  
   -0.40000     1.911e-07    1.017e-07  
   -0.41000     1.921e-07    1.018e-07  
   -0.42000     1.931e-07    1.020e-07  
   -0.43000     1.941e-07    1.022e-07  
   -0.44000     1.952e-07    1.024e-07  
   -0.45000     1.962e-07    1.026e-07  
   -0.46000     1.972e-07    1.028e-07  
   -0.47000     1.983e-07    1.031e-07  
   -0.48000     1.993e-07    1.033e-07  
   -0.49000     2.003e-07    1.036e-07  
   -0.50000     2.014e-07    1.038e-07  
   -0.51000     2.024e-07    1.041e-07  
   -0.52000     2.035e-07    1.044e-07  
   -0.53000     2.045e-07    1.047e-07  
   -0.54000     2.056e-07    1.049e-07  
   -0.55000     2.066e-07    1.052e-07  
   -0.56000     2.077e-07    1.055e-07  
   -0.57000     2.087e-07    1.058e-07  
   -0.58000     2.098e-07    1.061e-07  
   -0.59000     2.109e-07    1.064e-07  
   -0.60000     2.119e-07    1.067e-07  
   -0.61000     2.130e-07    1.070e-07  
   -0.62000     2.141e-07    1.073e-07  
   -0.63000     2.152e-07    1.076e-07  
   -0.64000     2.163e-07    1.079e-07  
   -0.65000     2.173e-07    1.083e-07  
   -0.66000     2.184e-07    1.086e-07  
   -0.67000     2.195e-07    1.089e-07  
   -0.68000     2.206e-07    1.092e-07  
   -0.69000     2.217e-07    1.095e-07  
   -0.70000     2.228e-07    1.099e-07  
   -0.71000     2.239e-07    1.102e-07  
   -0.72000     2.250e-07    1.105e-07  
   -0.73000     2.261e-07    1.108e-07  
   -0.74000     2.273e-07    1.112e-07  
   -0.75000     2.284e-07    1.115e-07  
   -0.76000     2.295e-07    1.119e-07  
   -0.77000     2.306e-07    1.122e-07  
   -0.78000     2.318e-07    1.125e-07  
   -0.79000     2.329e-07    1.129e-07  
   -0.80000     2.340e-07    1.132e-07  
   -0.81000     2.352e-07    1.135e-07  
   -0.82000     2.363e-07    1.139e-07  
   -0.83000     2.375e-07    1.142e-07  
   -0.84000     2.386e-07    1.146e-07  
   -0.85000     2.398e-07    1.149e-07  
   -0.86000     2.409e-07    1.153e-07  
   -0.87000     2.421e-07    1.156e-07  
   -0.88000     2.432e-07    1.160e-07  
   -0.89000     2.444e-07    1.163e-07  
   -0.90000     2.456e-07    1.166e-07  
   -0.91000     2.467e-07    1.170e-07  
   -0.92000     2.479e-07    1.174e-07  
   -0.93000     2.491e-07    1.177e-07  
   -0.94000     2.503e-07    1.181e-07  
   -0.95000     2.515e-07    1.184e-07  
   -0.96000     2.527e-07    1.188e-07  
   -0.97000     2.539e-07    1.191e-07  
   -0.98000     2.551e-07    1.195e-07  
   -0.99000     2.563e-07    1.198e-07  
