 ****** HSPICE -- G-2012.06 32-BIT (May 27 2012) RHEL32 ******                  
  Copyright (C) 2012 Synopsys, Inc. All Rights Reserved.                        
  Unpublished-rights reserved under US copyright laws.
  This program is protected by law and is subject to the
  terms and conditions of the license agreement from Synopsys.
  Use of this program is your acceptance to be bound by the
  license agreement. HSPICE is the trademark of Synopsys, Inc.
  Input File: idvdnmos.sp                                                       
  Command line options: -hdlpath ../code -i idvdnmos.sp -o idvdnmos
 lic:  
 lic: FLEXlm: v10.8 
 lic: USER:   navidp               HOSTNAME: intelr900-1.EECS.Berkeley.EDU 
 lic: HOSTID: 0022197fa591         PID:      25048 
 lic: Using FLEXlm license file: 
 lic: 1701@sunv40z-1.eecs.berkeley.edu 
 lic: Checkout 1 hspice 
 lic: License/Maintenance for hspice will expire on 19-dec-2013/2013.03 
 lic: 3(in_use)/50(total) FLOATING license(s) on SERVER sunv40z-1.eecs.berkeley.
 lic:   
 Init: read install configuration file: /tools/synopsys/hspice/G-2012.06/hspice/meta.cfg
 **info** *pvaI* Module (bsimcmg): 4 unexpanded port, 0 init, 2075 behav, 47 contrib, 63/3242 expr(s)

 **info** *pvaI* Resizing DB size for v count = 1

 **info** *pvaI* Resizing DB size for v count = 2

 **info** *pvaI*        Has DIS (ST SB), 4 afCount

 **info** *pvaI*        0 const-G and 0 const-C, Has switch branch.

 **info** *pvaI* Module (bsimcmg): generated 0 flow node(s) during compilation.

 **info** *pvaI* #### Total 697 line-size(s), 63 expr(s), 47 contr(s), 0 init(s), 2075 behav(s), 4 port(s)

 Loading pVA library idvdnmos.pvadir/pvaRTL_linux.so...
1****** HSPICE -- G-2012.06 32-BIT (May 27 2012) RHEL32 ******                  
 ******  
 *sample netlist for bsim-mg

  ******  circuit name directory
 circuit number to circuit name directory
   number circuitname                     definition         multiplier
        0 main circuit
        1 x1.                             bsimcmg(va)        1.00 
 **info** *pvaI* Creating Verilog-A module 'bsimcmg' for X1

  
      
 *****************************************************************
 ******  option summary
 ******
 runlvl  = 3         bypass  = 2         
  Opening plot unit= 15
 file=idvdnmos.pa0                                                             

 ******  
 *sample netlist for bsim-mg

  ******  dc transfer curves tnom=  25.000 temp=  27.000 *****

   *** source        0:vgs =    0.            ***

x

        volt    param        param      
                    ids          gds    
    0.            0.           0.       
  1.0000e-02    1.267e-10      0.       
  2.0000e-02    2.156e-10    1.267e-08  
  3.0000e-02    2.780e-10    8.887e-09  
  4.0000e-02    3.218e-10    6.240e-09  
  5.0000e-02    3.530e-10    4.386e-09  
  6.0000e-02    3.759e-10    3.117e-09  
  7.0000e-02    3.937e-10    2.291e-09  
  8.0000e-02    4.082e-10    1.774e-09  
  9.0000e-02    4.206e-10    1.452e-09  
    0.10000     4.316e-10    1.245e-09  
    0.11000     4.417e-10    1.102e-09  
    0.12000     4.511e-10    1.006e-09  
    0.13000     4.600e-10    9.377e-10  
    0.14000     4.686e-10    8.924e-10  
    0.15000     4.770e-10    8.612e-10  
    0.16000     4.853e-10    8.428e-10  
    0.17000     4.936e-10    8.300e-10  
    0.18000     5.017e-10    8.229e-10  
    0.19000     5.099e-10    8.162e-10  
    0.20000     5.181e-10    8.224e-10  
    0.21000     5.264e-10    8.184e-10  
    0.22000     5.347e-10    8.257e-10  
    0.23000     5.430e-10    8.296e-10  
    0.24000     5.514e-10    8.315e-10  
    0.25000     5.599e-10    8.424e-10  
    0.26000     5.684e-10    8.466e-10  
    0.27000     5.770e-10    8.555e-10  
    0.28000     5.858e-10    8.599e-10  
    0.29000     5.946e-10    8.802e-10  
    0.30000     6.036e-10    8.784e-10  
    0.31000     6.125e-10    8.924e-10  
    0.32000     6.217e-10    8.949e-10  
    0.33000     6.309e-10    9.186e-10  
    0.34000     6.402e-10    9.207e-10  
    0.35000     6.496e-10    9.293e-10  
    0.36000     6.592e-10    9.446e-10  
    0.37000     6.689e-10    9.567e-10  
    0.38000     6.786e-10    9.680e-10  
    0.39000     6.885e-10    9.703e-10  
    0.40000     6.986e-10    9.947e-10  
    0.41000     7.088e-10    1.009e-09  
    0.42000     7.191e-10    1.019e-09  
    0.43000     7.295e-10    1.024e-09  
    0.44000     7.401e-10    1.047e-09  
    0.45000     7.508e-10    1.054e-09  
    0.46000     7.616e-10    1.072e-09  
    0.47000     7.727e-10    1.086e-09  
    0.48000     7.838e-10    1.107e-09  
    0.49000     7.951e-10    1.111e-09  
    0.50000     8.065e-10    1.128e-09  
    0.51000     8.182e-10    1.145e-09  
    0.52000     8.300e-10    1.170e-09  
    0.53000     8.418e-10    1.172e-09  
    0.54000     8.541e-10    1.186e-09  
    0.55000     8.662e-10    1.225e-09  
    0.56000     8.787e-10    1.218e-09  
    0.57000     8.913e-10    1.247e-09  
    0.58000     9.041e-10    1.264e-09  
    0.59000     9.170e-10    1.272e-09  
    0.60000     9.303e-10    1.297e-09  
    0.61000     9.435e-10    1.328e-09  
    0.62000     9.571e-10    1.320e-09  
    0.63000     9.708e-10    1.359e-09  
    0.64000     9.846e-10    1.365e-09  
    0.65000     9.987e-10    1.387e-09  
    0.66000     1.013e-09    1.405e-09  
    0.67000     1.027e-09    1.428e-09  
    0.68000     1.042e-09    1.448e-09  
    0.69000     1.057e-09    1.465e-09  
    0.70000     1.072e-09    1.486e-09  
    0.71000     1.087e-09    1.508e-09  
    0.72000     1.103e-09    1.526e-09  
    0.73000     1.118e-09    1.530e-09  
    0.74000     1.134e-09    1.565e-09  
    0.75000     1.150e-09    1.595e-09  
    0.76000     1.166e-09    1.589e-09  
    0.77000     1.183e-09    1.628e-09  
    0.78000     1.199e-09    1.645e-09  
    0.79000     1.216e-09    1.665e-09  
    0.80000     1.233e-09    1.683e-09  
    0.81000     1.251e-09    1.713e-09  
    0.82000     1.268e-09    1.720e-09  
    0.83000     1.286e-09    1.741e-09  
    0.84000     1.304e-09    1.783e-09  
    0.85000     1.322e-09    1.781e-09  
    0.86000     1.340e-09    1.812e-09  
    0.87000     1.359e-09    1.832e-09  
    0.88000     1.377e-09    1.843e-09  
    0.89000     1.396e-09    1.874e-09  
    0.90000     1.416e-09    1.896e-09  
    0.91000     1.435e-09    1.927e-09  
    0.92000     1.455e-09    1.928e-09  
    0.93000     1.474e-09    1.971e-09  
    0.94000     1.494e-09    1.970e-09  
    0.95000     1.515e-09    2.015e-09  
    0.96000     1.535e-09    2.014e-09  
    0.97000     1.556e-09    2.048e-09  
    0.98000     1.577e-09    2.070e-09  
    0.99000     1.598e-09    2.082e-09  
    1.00000     1.619e-09    2.116e-09  
y
-----------------------------------------------
 ******  
 *sample netlist for bsim-mg

  ******  dc transfer curves tnom=  25.000 temp=  27.000 *****

   *** source        0:vgs =    0.1000        ***

x

        volt    param        param      
                    ids          gds    
    0.         -6.710e-16      0.       
  1.0000e-02    4.522e-09   -1.619e-07  
  2.0000e-02    7.693e-09    4.522e-07  
  3.0000e-02    9.916e-09    3.171e-07  
  4.0000e-02    1.147e-08    2.223e-07  
  5.0000e-02    1.257e-08    1.556e-07  
  6.0000e-02    1.337e-08    1.097e-07  
  7.0000e-02    1.398e-08    7.976e-08  
  8.0000e-02    1.447e-08    6.093e-08  
  9.0000e-02    1.488e-08    4.908e-08  
    0.10000     1.524e-08    4.127e-08  
    0.11000     1.556e-08    3.591e-08  
    0.12000     1.586e-08    3.216e-08  
    0.13000     1.613e-08    2.952e-08  
    0.14000     1.640e-08    2.766e-08  
    0.15000     1.665e-08    2.636e-08  
    0.16000     1.690e-08    2.543e-08  
    0.17000     1.714e-08    2.478e-08  
    0.18000     1.738e-08    2.433e-08  
    0.19000     1.762e-08    2.402e-08  
    0.20000     1.786e-08    2.382e-08  
    0.21000     1.809e-08    2.370e-08  
    0.22000     1.833e-08    2.363e-08  
    0.23000     1.857e-08    2.362e-08  
    0.24000     1.880e-08    2.364e-08  
    0.25000     1.904e-08    2.368e-08  
    0.26000     1.928e-08    2.376e-08  
    0.27000     1.952e-08    2.386e-08  
    0.28000     1.976e-08    2.396e-08  
    0.29000     2.000e-08    2.409e-08  
    0.30000     2.024e-08    2.422e-08  
    0.31000     2.049e-08    2.437e-08  
    0.32000     2.074e-08    2.451e-08  
    0.33000     2.099e-08    2.469e-08  
    0.34000     2.124e-08    2.486e-08  
    0.35000     2.149e-08    2.502e-08  
    0.36000     2.174e-08    2.522e-08  
    0.37000     2.200e-08    2.540e-08  
    0.38000     2.226e-08    2.559e-08  
    0.39000     2.252e-08    2.579e-08  
    0.40000     2.278e-08    2.598e-08  
    0.41000     2.304e-08    2.619e-08  
    0.42000     2.331e-08    2.640e-08  
    0.43000     2.358e-08    2.661e-08  
    0.44000     2.385e-08    2.683e-08  
    0.45000     2.412e-08    2.704e-08  
    0.46000     2.439e-08    2.727e-08  
    0.47000     2.467e-08    2.749e-08  
    0.48000     2.495e-08    2.772e-08  
    0.49000     2.523e-08    2.796e-08  
    0.50000     2.552e-08    2.819e-08  
    0.51000     2.580e-08    2.842e-08  
    0.52000     2.609e-08    2.866e-08  
    0.53000     2.638e-08    2.891e-08  
    0.54000     2.668e-08    2.916e-08  
    0.55000     2.697e-08    2.938e-08  
    0.56000     2.727e-08    2.966e-08  
    0.57000     2.757e-08    2.990e-08  
    0.58000     2.788e-08    3.017e-08  
    0.59000     2.819e-08    3.042e-08  
    0.60000     2.850e-08    3.068e-08  
    0.61000     2.881e-08    3.094e-08  
    0.62000     2.912e-08    3.120e-08  
    0.63000     2.944e-08    3.146e-08  
    0.64000     2.976e-08    3.176e-08  
    0.65000     3.008e-08    3.200e-08  
    0.66000     3.041e-08    3.230e-08  
    0.67000     3.074e-08    3.256e-08  
    0.68000     3.107e-08    3.285e-08  
    0.69000     3.140e-08    3.313e-08  
    0.70000     3.174e-08    3.340e-08  
    0.71000     3.208e-08    3.370e-08  
    0.72000     3.242e-08    3.398e-08  
    0.73000     3.277e-08    3.428e-08  
    0.74000     3.312e-08    3.457e-08  
    0.75000     3.347e-08    3.487e-08  
    0.76000     3.382e-08    3.517e-08  
    0.77000     3.418e-08    3.547e-08  
    0.78000     3.454e-08    3.577e-08  
    0.79000     3.490e-08    3.608e-08  
    0.80000     3.527e-08    3.638e-08  
    0.81000     3.564e-08    3.668e-08  
    0.82000     3.601e-08    3.700e-08  
    0.83000     3.639e-08    3.732e-08  
    0.84000     3.677e-08    3.762e-08  
    0.85000     3.715e-08    3.795e-08  
    0.86000     3.754e-08    3.826e-08  
    0.87000     3.793e-08    3.858e-08  
    0.88000     3.832e-08    3.892e-08  
    0.89000     3.872e-08    3.923e-08  
    0.90000     3.911e-08    3.956e-08  
    0.91000     3.952e-08    3.990e-08  
    0.92000     3.992e-08    4.023e-08  
    0.93000     4.033e-08    4.057e-08  
    0.94000     4.074e-08    4.091e-08  
    0.95000     4.116e-08    4.124e-08  
    0.96000     4.158e-08    4.158e-08  
    0.97000     4.200e-08    4.195e-08  
    0.98000     4.243e-08    4.227e-08  
    0.99000     4.286e-08    4.264e-08  
    1.00000     4.329e-08    4.299e-08  
y
-----------------------------------------------
 ******  
 *sample netlist for bsim-mg

  ******  dc transfer curves tnom=  25.000 temp=  27.000 *****

   *** source        0:vgs =    0.2000        ***

x

        volt    param        param      
                    ids          gds    
    0.         -2.631e-15      0.       
  1.0000e-02    1.449e-07   -4.329e-06  
  2.0000e-02    2.496e-07    1.449e-05  
  3.0000e-02    3.245e-07    1.047e-05  
  4.0000e-02    3.776e-07    7.492e-06  
  5.0000e-02    4.152e-07    5.308e-06  
  6.0000e-02    4.422e-07    3.756e-06  
  7.0000e-02    4.626e-07    2.707e-06  
  8.0000e-02    4.786e-07    2.032e-06  
  9.0000e-02    4.917e-07    1.600e-06  
    0.10000     5.028e-07    1.313e-06  
    0.11000     5.126e-07    1.114e-06  
    0.12000     5.212e-07    9.715e-07  
    0.13000     5.292e-07    8.688e-07  
    0.14000     5.366e-07    7.941e-07  
    0.15000     5.436e-07    7.393e-07  
    0.16000     5.502e-07    6.987e-07  
    0.17000     5.567e-07    6.682e-07  
    0.18000     5.630e-07    6.452e-07  
    0.19000     5.691e-07    6.275e-07  
    0.20000     5.751e-07    6.139e-07  
    0.21000     5.811e-07    6.034e-07  
    0.22000     5.870e-07    5.952e-07  
    0.23000     5.928e-07    5.888e-07  
    0.24000     5.986e-07    5.838e-07  
    0.25000     6.044e-07    5.800e-07  
    0.26000     6.101e-07    5.772e-07  
    0.27000     6.159e-07    5.750e-07  
    0.28000     6.216e-07    5.735e-07  
    0.29000     6.273e-07    5.725e-07  
    0.30000     6.330e-07    5.720e-07  
    0.31000     6.388e-07    5.719e-07  
    0.32000     6.445e-07    5.720e-07  
    0.33000     6.502e-07    5.725e-07  
    0.34000     6.560e-07    5.732e-07  
    0.35000     6.617e-07    5.741e-07  
    0.36000     6.675e-07    5.751e-07  
    0.37000     6.733e-07    5.764e-07  
    0.38000     6.791e-07    5.778e-07  
    0.39000     6.849e-07    5.794e-07  
    0.40000     6.907e-07    5.810e-07  
    0.41000     6.965e-07    5.828e-07  
    0.42000     7.024e-07    5.847e-07  
    0.43000     7.083e-07    5.866e-07  
    0.44000     7.142e-07    5.887e-07  
    0.45000     7.201e-07    5.908e-07  
    0.46000     7.261e-07    5.930e-07  
    0.47000     7.321e-07    5.953e-07  
    0.48000     7.381e-07    5.977e-07  
    0.49000     7.441e-07    6.001e-07  
    0.50000     7.501e-07    6.025e-07  
    0.51000     7.562e-07    6.050e-07  
    0.52000     7.623e-07    6.076e-07  
    0.53000     7.684e-07    6.102e-07  
    0.54000     7.746e-07    6.128e-07  
    0.55000     7.808e-07    6.155e-07  
    0.56000     7.870e-07    6.182e-07  
    0.57000     7.932e-07    6.210e-07  
    0.58000     7.995e-07    6.238e-07  
    0.59000     8.058e-07    6.266e-07  
    0.60000     8.121e-07    6.295e-07  
    0.61000     8.185e-07    6.324e-07  
    0.62000     8.248e-07    6.353e-07  
    0.63000     8.313e-07    6.383e-07  
    0.64000     8.377e-07    6.413e-07  
    0.65000     8.442e-07    6.443e-07  
    0.66000     8.507e-07    6.473e-07  
    0.67000     8.572e-07    6.504e-07  
    0.68000     8.638e-07    6.535e-07  
    0.69000     8.704e-07    6.566e-07  
    0.70000     8.770e-07    6.597e-07  
    0.71000     8.837e-07    6.629e-07  
    0.72000     8.904e-07    6.661e-07  
    0.73000     8.971e-07    6.693e-07  
    0.74000     9.038e-07    6.725e-07  
    0.75000     9.106e-07    6.758e-07  
    0.76000     9.175e-07    6.790e-07  
    0.77000     9.243e-07    6.823e-07  
    0.78000     9.312e-07    6.857e-07  
    0.79000     9.381e-07    6.890e-07  
    0.80000     9.451e-07    6.923e-07  
    0.81000     9.521e-07    6.957e-07  
    0.82000     9.591e-07    6.991e-07  
    0.83000     9.662e-07    7.025e-07  
    0.84000     9.732e-07    7.059e-07  
    0.85000     9.804e-07    7.093e-07  
    0.86000     9.875e-07    7.128e-07  
    0.87000     9.947e-07    7.163e-07  
    0.88000     1.002e-06    7.198e-07  
    0.89000     1.009e-06    7.233e-07  
    0.90000     1.017e-06    7.268e-07  
    0.91000     1.024e-06    7.303e-07  
    0.92000     1.031e-06    7.339e-07  
    0.93000     1.039e-06    7.375e-07  
    0.94000     1.046e-06    7.410e-07  
    0.95000     1.054e-06    7.446e-07  
    0.96000     1.061e-06    7.483e-07  
    0.97000     1.069e-06    7.519e-07  
    0.98000     1.076e-06    7.555e-07  
    0.99000     1.084e-06    7.592e-07  
    1.00000     1.092e-06    7.629e-07  
y
-----------------------------------------------
 ******  
 *sample netlist for bsim-mg

  ******  dc transfer curves tnom=  25.000 temp=  27.000 *****

   *** source        0:vgs =    0.3000        ***

x

        volt    param        param      
                    ids          gds    
    0.         -7.615e-15      0.       
  1.0000e-02    1.542e-06   -1.092e-04  
  2.0000e-02    2.864e-06    1.542e-04  
  3.0000e-02    3.979e-06    1.322e-04  
  4.0000e-02    4.900e-06    1.115e-04  
  5.0000e-02    5.647e-06    9.218e-05  
  6.0000e-02    6.239e-06    7.462e-05  
  7.0000e-02    6.704e-06    5.924e-05  
  8.0000e-02    7.068e-06    4.647e-05  
  9.0000e-02    7.357e-06    3.644e-05  
    0.10000     7.591e-06    2.892e-05  
    0.11000     7.784e-06    2.339e-05  
    0.12000     7.947e-06    1.931e-05  
    0.13000     8.086e-06    1.626e-05  
    0.14000     8.208e-06    1.395e-05  
    0.15000     8.316e-06    1.218e-05  
    0.16000     8.414e-06    1.081e-05  
    0.17000     8.503e-06    9.744e-06  
    0.18000     8.585e-06    8.903e-06  
    0.19000     8.662e-06    8.234e-06  
    0.20000     8.735e-06    7.698e-06  
    0.21000     8.804e-06    7.263e-06  
    0.22000     8.870e-06    6.906e-06  
    0.23000     8.934e-06    6.611e-06  
    0.24000     8.995e-06    6.365e-06  
    0.25000     9.055e-06    6.157e-06  
    0.26000     9.113e-06    5.981e-06  
    0.27000     9.170e-06    5.829e-06  
    0.28000     9.226e-06    5.699e-06  
    0.29000     9.281e-06    5.585e-06  
    0.30000     9.335e-06    5.486e-06  
    0.31000     9.388e-06    5.399e-06  
    0.32000     9.441e-06    5.322e-06  
    0.33000     9.493e-06    5.254e-06  
    0.34000     9.544e-06    5.193e-06  
    0.35000     9.595e-06    5.138e-06  
    0.36000     9.645e-06    5.090e-06  
    0.37000     9.696e-06    5.046e-06  
    0.38000     9.745e-06    5.006e-06  
    0.39000     9.795e-06    4.970e-06  
    0.40000     9.844e-06    4.938e-06  
    0.41000     9.893e-06    4.908e-06  
    0.42000     9.941e-06    4.881e-06  
    0.43000     9.989e-06    4.857e-06  
    0.44000     1.004e-05    4.834e-06  
    0.45000     1.009e-05    4.814e-06  
    0.46000     1.013e-05    4.796e-06  
    0.47000     1.018e-05    4.779e-06  
    0.48000     1.023e-05    4.763e-06  
    0.49000     1.028e-05    4.749e-06  
    0.50000     1.032e-05    4.736e-06  
    0.51000     1.037e-05    4.724e-06  
    0.52000     1.042e-05    4.714e-06  
    0.53000     1.046e-05    4.704e-06  
    0.54000     1.051e-05    4.695e-06  
    0.55000     1.056e-05    4.687e-06  
    0.56000     1.060e-05    4.680e-06  
    0.57000     1.065e-05    4.673e-06  
    0.58000     1.070e-05    4.667e-06  
    0.59000     1.074e-05    4.662e-06  
    0.60000     1.079e-05    4.657e-06  
    0.61000     1.084e-05    4.653e-06  
    0.62000     1.088e-05    4.650e-06  
    0.63000     1.093e-05    4.646e-06  
    0.64000     1.098e-05    4.644e-06  
    0.65000     1.102e-05    4.641e-06  
    0.66000     1.107e-05    4.640e-06  
    0.67000     1.112e-05    4.638e-06  
    0.68000     1.116e-05    4.637e-06  
    0.69000     1.121e-05    4.636e-06  
    0.70000     1.125e-05    4.636e-06  
    0.71000     1.130e-05    4.636e-06  
    0.72000     1.135e-05    4.636e-06  
    0.73000     1.139e-05    4.636e-06  
    0.74000     1.144e-05    4.637e-06  
    0.75000     1.149e-05    4.638e-06  
    0.76000     1.153e-05    4.639e-06  
    0.77000     1.158e-05    4.640e-06  
    0.78000     1.163e-05    4.642e-06  
    0.79000     1.167e-05    4.644e-06  
    0.80000     1.172e-05    4.645e-06  
    0.81000     1.177e-05    4.648e-06  
    0.82000     1.181e-05    4.650e-06  
    0.83000     1.186e-05    4.652e-06  
    0.84000     1.191e-05    4.655e-06  
    0.85000     1.195e-05    4.658e-06  
    0.86000     1.200e-05    4.661e-06  
    0.87000     1.205e-05    4.664e-06  
    0.88000     1.209e-05    4.667e-06  
    0.89000     1.214e-05    4.670e-06  
    0.90000     1.219e-05    4.674e-06  
    0.91000     1.223e-05    4.678e-06  
    0.92000     1.228e-05    4.681e-06  
    0.93000     1.233e-05    4.685e-06  
    0.94000     1.237e-05    4.689e-06  
    0.95000     1.242e-05    4.693e-06  
    0.96000     1.247e-05    4.697e-06  
    0.97000     1.251e-05    4.701e-06  
    0.98000     1.256e-05    4.706e-06  
    0.99000     1.261e-05    4.710e-06  
