 ****** HSPICE -- L-2016.03 linux64 (Feb 24 2016) ******                        
  Copyright (c) 1986 - 2017 by Synopsys, Inc. All Rights Reserved.              
  This software and the associated documentation are proprietary
  to Synopsys, Inc. This software may only be used in accordance
  with the terms and conditions of a written license agreement with
  Synopsys, Inc. All other use, reproduction, or distribution of
  this software is strictly prohibited.
  Input File: inverter_tr.sp                                                    
  Command line options: /tools/synopsys/hspice/L-2016.03/hspice/linux64/hspice -hdlpath ../code -i inverter_tr.sp -o inverter_tr
 lic:  
 lic: FLEXlm: v11.2.1 
 lic: USER:   huanlin              HOSTNAME: bwrcr720-5.eecs.berkeley.edu 
 lic: HOSTID: "c81f66efdbed"       PID:      48690 
 lic: Using FLEXlm license file: 
 lic: 1701@sunv40z-1.eecs.berkeley.edu 
 lic: Checkout 1 hspice 
 lic: License/Maintenance for hspice will expire on 19-dec-2017/2016.06 
 lic: 1(in_use)/50(total) FLOATING license(s) on SERVER 1701@sunv40z-1.eecs.berkeley.edu 
 lic:   
 **info** *pvaI* current limit stacksize=10485760, set new limit stacksize=62914560

 **info** *pvaI* Module (bsimsoi): 7 unexpanded port, 0 init, 4082 behav, 72 contrib, 39/3050 expr(s)

 **info** *pvaI*        Has DIS(DT PC), 2/48 afCount, 0 MT, dlg, 6 node(s) maybe reduced, IO(0/0/1/1)

 **info** *pvaI*        0 const-G and 0 const-C, Has switchBranch, 22 bypassOpt, 0 bus2scalar

 **warning** *pvaW*        variable 'VDSAT' initialized but not used in RHS, deleted (../code/bsimsoi.va:5983)

 **warning** *pvaW*        variable 'VTH' initialized but not used in RHS, deleted (../code/bsimsoi.va:5522)

 **warning** *pvaW*        variable 'IDS' initialized but not used in RHS, deleted (../code/bsimsoi.va:8105)

 **warning** *pvaW*        variable 'GM' initialized but not used in RHS, deleted (../code/bsimsoi.va:8106)

 **warning** *pvaW*        variable 'GDS' initialized but not used in RHS, deleted (../code/bsimsoi.va:8107)

 **warning** *pvaW*        variable 'GMBS' initialized but not used in RHS, deleted (../code/bsimsoi.va:8108)

 **warning** *pvaW*        variable 'IC' initialized but not used in RHS, deleted (../code/bsimsoi.va:8109)

 **warning** *pvaW*        variable 'IBD' initialized but not used in RHS, deleted (../code/bsimsoi.va:8111)

 **warning** *pvaW*        variable 'IBS' initialized but not used in RHS, deleted (../code/bsimsoi.va:8110)

 **warning** *pvaW*        variable 'IGIDL' initialized but not used in RHS, deleted (../code/bsimsoi.va:8112)

 **warning** *pvaW*        variable 'IGISL' initialized but not used in RHS, deleted (../code/bsimsoi.va:8113)

 **warning** *pvaW*        variable 'IGS' initialized but not used in RHS, deleted (../code/bsimsoi.va:8114)

 **warning** *pvaW*        variable 'IGD' initialized but not used in RHS, deleted (../code/bsimsoi.va:8115)

 **warning** *pvaW*        variable 'IGB' initialized but not used in RHS, deleted (../code/bsimsoi.va:8116)

 **warning** *pvaW*        variable 'IGCS' initialized but not used in RHS, deleted (../code/bsimsoi.va:8117)

 **warning** *pvaW*        variable 'IGCD' initialized but not used in RHS, deleted (../code/bsimsoi.va:8118)

 **warning** *pvaW*        variable 'CGG' initialized but not used in RHS, deleted (../code/bsimsoi.va:8129)

 **warning** *pvaW*        variable 'CGS' initialized but not used in RHS, deleted (../code/bsimsoi.va:8132)

 **warning** *pvaW*        variable 'CGD' initialized but not used in RHS, deleted (../code/bsimsoi.va:8133)

 **warning** *pvaW*        variable 'CBG' initialized but not used in RHS, deleted (../code/bsimsoi.va:8134)

 **warning** *pvaW*        variable 'CBS' initialized but not used in RHS, deleted (../code/bsimsoi.va:8136)

 **warning** *pvaW*        variable 'CBD' initialized but not used in RHS, deleted (../code/bsimsoi.va:8135)

 **warning** *pvaW*        variable 'CDG' initialized but not used in RHS, deleted (../code/bsimsoi.va:8137)

 **warning** *pvaW*        variable 'CDD' initialized but not used in RHS, deleted (../code/bsimsoi.va:8138)

 **warning** *pvaW*        variable 'CDS' initialized but not used in RHS, deleted (../code/bsimsoi.va:8139)

 **warning** *pvaW*        variable 'CAPBD' initialized but not used in RHS, deleted (../code/bsimsoi.va:8142)

 **warning** *pvaW*        variable 'CAPBS' initialized but not used in RHS, deleted (../code/bsimsoi.va:8143)

 **warning** *pvaW*        variable 'QS' initialized but not used in RHS, deleted (../code/bsimsoi.va:8124)

 **warning** *pvaW*        variable 'T_TOTAL_K' initialized but not used in RHS, deleted (../code/bsimsoi.va:4417)

 **warning** *pvaW*        variable 'T_TOTAL_C' initialized but not used in RHS, deleted (../code/bsimsoi.va:4418)

 **warning** *pvaW*        variable 'T_DELTA_SH' initialized but not used in RHS, deleted (../code/bsimsoi.va:4419)

 **info** *pvaI*        generated 5 flow node(s) during compilation.

 **info** *pvaI* #### Total 565 line-size(s), 39/3050 expr(s), 72 contr(s), 0 init(s), 4082 behav(s), 7 port(s)

 Loading pVA library inverter_tr.pvadir/pvaRTL_linux64.so...
1****** HSPICE -- L-2016.03 linux64 (Feb 24 2016) ******                        
 ******  
 *sample netlist for bsimsoi

 ****** circuit name directory
 circuit number to circuit name directory
   number circuitname                     definition         multiplier
        0 main circuit
        1 xn0.                            bsimsoi(va)        1.00 
        2 xp0.                            bsimsoi(va)        1.00 
  **info** (inverter_tr.sp:14) DC voltage reset to initial transient source value in source 0:vgate. new dc=0.0000D+00
 **info** *pvaI* Creating VA module (bsimsoi) for instance XP0

 **info** *pvaI* Module (bsimsoi): node 'db' shorted with port 'b' (../code/bsimsoi.va:8064)

 **info** *pvaI* Module (bsimsoi): node 'gi' shorted with port 'gm' (../code/bsimsoi.va:8045)

 **info** *pvaI* Module (bsimsoi): node 'gm' shorted with port 'g' (../code/bsimsoi.va:8037)

 **info** *pvaI* Module (bsimsoi): node 'sb' shorted with port 'b' (../code/bsimsoi.va:8065)

 **info** *pvaI*  4           nodes and 6 branches eliminated for module 'bsimsoi'

 **info** *pvaI*   3 port(s) not connected

 **info** *pvaI*        termCount=18 diwSize=368 probeSize=2287 Qsize=15 Isize=27

 End of GMD creation on Tue Nov 14 11:21:02 2017	GTM/In-use: 23.5000/21.1810 MB


 **info** *pvaI* Creating VA module (bsimsoi) for instance XN0

 **info** *pvaI* Module (bsimsoi): node 'db' shorted with port 'b' (../code/bsimsoi.va:8064)

 **info** *pvaI* Module (bsimsoi): node 'gi' shorted with port 'gm' (../code/bsimsoi.va:8045)

 **info** *pvaI* Module (bsimsoi): node 'gm' shorted with port 'g' (../code/bsimsoi.va:8037)

 **info** *pvaI* Module (bsimsoi): node 'sb' shorted with port 'b' (../code/bsimsoi.va:8065)

 **info** *pvaI*  4           nodes and 6 branches eliminated for module 'bsimsoi'

 **info** *pvaI*   3 port(s) not connected

 **info** *pvaI*        termCount=18 diwSize=368 probeSize=0 Qsize=15 Isize=27

 End of GMD creation on Tue Nov 14 11:21:02 2017	GTM/In-use: 23.5000/21.1929 MB


  
      
 *****************************************************************
 ******  option summary
 ******
 runlvl  = 3         bypass  = 2.0000    
  Opening plot unit= 15
 file=inverter_tr.pa0

 **info** dc convergence successful at Newton-Raphson method 
 ******  
 *sample netlist for bsimsoi

 ****** operating point information tnom=  25.000 temp=  25.000 ******
 ****** operating point status is voltage   simulation time is     0.     
    node    =voltage      node    =voltage      node    =voltage

 +0:gate    =   0.      0:out     =   1.5000  0:vd      =   1.5000 
 +0:vs      =   0.     

 **info** *pvaI* minimum timestep = 1e-20

 ******
 *sample netlist for bsimsoi

 ****** transient analysis tnom=  25.000 temp=  25.000 ******
x

 time         voltage    voltage   
             gate       out        
    0.          0.         1.5000  
   10.00000p    0.         1.5000  
   20.00000p    0.         1.5000  
   30.00000p    0.         1.5000  
   40.00000p    0.         1.5000  
   50.00000p    0.         1.5000  
   60.00000p    0.         1.5000  
   70.00000p    0.         1.5000  
   80.00000p    0.         1.5000  
   90.00000p    0.         1.5000  
  100.00000p  387.7409a    1.5000  
  110.00000p  300.0000m    1.5921  
  120.00000p  600.0000m    1.6483  
  130.00000p  900.0000m    1.6484  
  140.00000p    1.2000   949.6668m 
  150.00000p    1.5000   210.7045m 
  160.00000p    1.5000    64.7799m 
  170.00000p    1.5000    18.6345m 
  180.00000p    1.5000     4.9898m 
  190.00000p    1.5000   882.4792u 
  200.00000p    1.5000   263.6537u 
  210.00000p    1.5000    -3.4643u 
  220.00000p    1.5000     8.8801u 
  230.00000p    1.5000    21.2245u 
  240.00000p    1.5000    20.5967u 
  250.00000p    1.5000    16.2968u 
  260.00000p    1.5000    11.9968u 
  270.00000p    1.5000     7.6968u 
  280.00000p    1.5000     3.3969u 
  290.00000p    1.5000     3.8481u 
  300.00000p    1.5000     5.6444u 
  310.00000p    1.5000     7.4406u 
  320.00000p    1.5000     9.2369u 
  330.00000p    1.5000    11.0331u 
  340.00000p    1.5000     9.9332u 
  350.00000p    1.5000     8.0135u 
  360.00000p    1.2000   -89.7548m 
  370.00000p  900.0000m -155.4074m 
  380.00000p  600.0000m  -59.4812m 
  390.00000p  300.0000m  790.2234m 
  400.00000p    0.         1.2927  
  410.00000p    0.         1.4329  
  420.00000p    0.         1.4798  
  430.00000p    0.         1.4946  
  440.00000p    0.         1.4982  
  450.00000p    0.         1.4996  
  460.00000p    0.         1.4999  
  470.00000p    0.         1.5000  
  480.00000p    0.         1.5000  
  490.00000p    0.         1.5000  
  500.00000p    0.         1.5000  
  510.00000p    0.         1.5000  
  520.00000p    0.         1.5000  
  530.00000p    0.         1.5000  
  540.00000p    0.         1.5000  
  550.00000p    0.         1.5000  
  560.00000p    0.         1.5000  
  570.00000p    0.         1.5000  
  580.00000p    0.         1.5000  
  590.00000p    0.         1.5000  
  600.00000p    0.         1.5000  
y

          ***** job concluded
 ******  
 *sample netlist for bsimsoi

 ****** job statistics summary tnom=  25.000 temp=  25.000 ******
  
  
 ******  Machine Information  ******
 CPU:
 model name	: Intel(R) Xeon(R) CPU E5-2670 v2 @ 2.50GHz
 cpu MHz	: 2499.925
  
 OS:
 Linux version 2.6.32-696.6.3.el6.x86_64 (mockbuild@x86-042.build.eng.bos.redhat.com) (gcc version 4.4.7 20120313 (Red Hat 4.4.7-18) (GCC) ) #1 SMP Fri Jun 30 13:24:18 EDT 2017


  ******  HSPICE Threads Information  ******

  Command Line Threads Count :     1
  Available CPU Count        :    40
  Actual Threads Count       :     1


  ******  Circuit Statistics  ******
  # nodes       =      23 # elements   =       5
  # resistors   =       0 # capacitors =       0 # inductors   =       0
  # mutual_inds =       0 # vccs       =       0 # vcvs        =       0
  # cccs        =       0 # ccvs       =       0 # volt_srcs   =       3
  # curr_srcs   =       0 # diodes     =       0 # bjts        =       0
  # jfets       =       0 # mosfets    =       0 # U elements  =       0
  # T elements  =       0 # W elements =       0 # B elements  =       0
  # S elements  =       0 # P elements =       0 # va device   =       2
  # vector_srcs =       0 # N elements =       0


  ******  Runtime Statistics (seconds)  ******

  analysis           time    # points   tot. iter  conv.iter
  op point           0.00           1          50
  transient          0.02          61         232          44 rev=         3
  readin             4.28
  errchk             0.03
  setup              0.00
  output             0.00


           peak memory used        225.71 megabytes
           total cpu time            4.33 seconds
           total elapsed time       16.33 seconds
           job started at     11:20:46 11/14/2017
           job ended   at     11:21:02 11/14/2017


 lic: Release hspice token(s) 
 lic: total license checkout elapse time:        0.23(s)
