 ****** HSPICE -- G-2012.06 32-BIT (May 27 2012) RHEL32 ******                  
  Copyright (C) 2012 Synopsys, Inc. All Rights Reserved.                        
  Unpublished-rights reserved under US copyright laws.
  This program is protected by law and is subject to the
  terms and conditions of the license agreement from Synopsys.
  Use of this program is your acceptance to be bound by the
  license agreement. HSPICE is the trademark of Synopsys, Inc.
  Input File: idvd_pmos.sp                                                      
  Command line options: -hdlpath ../code -i idvd_pmos.sp -o idvd_pmos
 lic:  
 lic: FLEXlm: v10.8 
 lic: USER:   sourabh              HOSTNAME: bwrcrdsl-3.eecs.berkeley.edu 
 lic: HOSTID:                      PID:      23905 
 lic: Using FLEXlm license file: 
 lic: 1701@sunv40z-1.eecs.berkeley.edu 
 lic: Checkout 1 hspice 
 lic: License/Maintenance for hspice will expire on 19-dec-2015/2014.09 
 lic: 1(in_use)/50(total) FLOATING license(s) on SERVER sunv40z-1.eecs.berkeley.
 lic:   
 Init: read install configuration file: /tools/synopsys/hspice/G-2012.06/hspice/meta.cfg
 **info** *pvaI* Module (bsim6): 4 unexpanded port, 0 init, 2615 behav, 63 contrib, 58/2705 expr(s)

 **info** *pvaI* Resizing DB size for v count = 1

 **info** *pvaI*        Has DIS (DT ST SB), 3 afCount

 **info** *pvaI*        0 const-G and 0 const-C, Has switch branch.

 **info** *pvaI* Module (bsim6): generated 7 flow node(s) during compilation.

 **info** *pvaI* #### Total 519 line-size(s), 58 expr(s), 63 contr(s), 0 init(s), 2615 behav(s), 4 port(s)

 Loading pVA library idvd_pmos.pvadir/pvaRTL_linux.so...
1****** HSPICE -- G-2012.06 32-BIT (May 27 2012) RHEL32 ******                  
 ******  
 *sample netlist for bsim6

  ******  circuit name directory
 circuit number to circuit name directory
   number circuitname                     definition         multiplier
        0 main circuit
        1 x1.                             bsim6(va)          1.00 
 **info** *pvaI* Creating Verilog-A module 'bsim6' for X1

  
      
 *****************************************************************
 ******  option summary
 ******
 runlvl  = 3         bypass  = 2         
  Opening plot unit= 15
 file=idvd_pmos.pa0                                                            

 ******  
 *sample netlist for bsim6

  ******  dc transfer curves tnom=  25.000 temp=  27.000 *****

   *** source        0:vg =   -1.0000        ***

x

        volt    param        param      
                    ids          gd     
   -1.30000     5.451e-05      0.       
   -1.29000     5.435e-05    5.451e-03  
   -1.28000     5.420e-05   -1.548e-05  
   -1.27000     5.405e-05   -1.531e-05  
   -1.26000     5.390e-05   -1.514e-05  
   -1.25000     5.375e-05   -1.496e-05  
   -1.24000     5.361e-05   -1.478e-05  
   -1.23000     5.346e-05   -1.459e-05  
   -1.22000     5.332e-05   -1.439e-05  
   -1.21000     5.318e-05   -1.419e-05  
   -1.20000     5.304e-05   -1.399e-05  
   -1.19000     5.291e-05   -1.378e-05  
   -1.18000     5.277e-05   -1.357e-05  
   -1.17000     5.264e-05   -1.335e-05  
   -1.16000     5.251e-05   -1.313e-05  
   -1.15000     5.239e-05   -1.291e-05  
   -1.14000     5.226e-05   -1.267e-05  
   -1.13000     5.214e-05   -1.244e-05  
   -1.12000     5.202e-05   -1.220e-05  
   -1.11000     5.190e-05   -1.196e-05  
   -1.10000     5.179e-05   -1.171e-05  
   -1.09000     5.168e-05   -1.146e-05  
   -1.08000     5.157e-05   -1.120e-05  
   -1.07000     5.146e-05   -1.095e-05  
   -1.06000     5.136e-05   -1.069e-05  
   -1.05000     5.126e-05   -1.042e-05  
   -1.04000     5.116e-05   -1.016e-05  
   -1.03000     5.106e-05   -9.889e-06  
   -1.02000     5.097e-05   -9.620e-06  
   -1.01000     5.088e-05   -9.350e-06  
   -1.00000     5.079e-05   -9.079e-06  
   -0.99000     5.070e-05   -8.808e-06  
   -0.98000     5.062e-05   -8.537e-06  
   -0.97000     5.054e-05   -8.267e-06  
   -0.96000     5.046e-05   -7.999e-06  
   -0.95000     5.039e-05   -7.734e-06  
   -0.94000     5.032e-05   -7.472e-06  
   -0.93000     5.025e-05   -7.214e-06  
   -0.92000     5.018e-05   -6.963e-06  
   -0.91000     5.011e-05   -6.720e-06  
   -0.90000     5.005e-05   -6.486e-06  
   -0.89000     4.999e-05   -6.264e-06  
   -0.88000     4.993e-05   -6.058e-06  
   -0.87000     4.987e-05   -5.870e-06  
   -0.86000     4.982e-05   -5.704e-06  
   -0.85000     4.976e-05   -5.567e-06  
   -0.84000     4.971e-05   -5.465e-06  
   -0.83000     4.966e-05   -5.403e-06  
   -0.82000     4.960e-05   -5.390e-06  
   -0.81000     4.955e-05   -5.435e-06  
   -0.80000     4.949e-05   -5.546e-06  
   -0.79000     4.943e-05   -5.732e-06  
   -0.78000     4.937e-05   -6.001e-06  
   -0.77000     4.930e-05   -6.359e-06  
   -0.76000     4.922e-05   -6.812e-06  
   -0.75000     4.914e-05   -7.363e-06  
   -0.74000     4.906e-05   -8.013e-06  
   -0.73000     4.896e-05   -8.763e-06  
   -0.72000     4.885e-05   -9.610e-06  
   -0.71000     4.874e-05   -1.055e-05  
   -0.70000     4.861e-05   -1.158e-05  
   -0.69000     4.847e-05   -1.270e-05  
   -0.68000     4.832e-05   -1.390e-05  
   -0.67000     4.816e-05   -1.518e-05  
   -0.66000     4.798e-05   -1.652e-05  
   -0.65000     4.778e-05   -1.793e-05  
   -0.64000     4.757e-05   -1.940e-05  
   -0.63000     4.735e-05   -2.092e-05  
   -0.62000     4.711e-05   -2.249e-05  
   -0.61000     4.685e-05   -2.410e-05  
   -0.60000     4.658e-05   -2.575e-05  
   -0.59000     4.628e-05   -2.744e-05  
   -0.58000     4.598e-05   -2.915e-05  
   -0.57000     4.565e-05   -3.089e-05  
   -0.56000     4.530e-05   -3.266e-05  
   -0.55000     4.494e-05   -3.444e-05  
   -0.54000     4.456e-05   -3.624e-05  
   -0.53000     4.416e-05   -3.804e-05  
   -0.52000     4.375e-05   -3.986e-05  
   -0.51000     4.331e-05   -4.168e-05  
   -0.50000     4.286e-05   -4.351e-05  
   -0.49000     4.239e-05   -4.533e-05  
   -0.48000     4.190e-05   -4.716e-05  
   -0.47000     4.139e-05   -4.898e-05  
   -0.46000     4.086e-05   -5.080e-05  
   -0.45000     4.032e-05   -5.260e-05  
   -0.44000     3.976e-05   -5.440e-05  
   -0.43000     3.918e-05   -5.619e-05  
   -0.42000     3.858e-05   -5.797e-05  
   -0.41000     3.796e-05   -5.973e-05  
   -0.40000     3.733e-05   -6.148e-05  
   -0.39000     3.668e-05   -6.322e-05  
   -0.38000     3.602e-05   -6.493e-05  
   -0.37000     3.533e-05   -6.664e-05  
   -0.36000     3.463e-05   -6.832e-05  
   -0.35000     3.392e-05   -6.999e-05  
   -0.34000     3.318e-05   -7.164e-05  
   -0.33000     3.244e-05   -7.326e-05  
   -0.32000     3.167e-05   -7.487e-05  
   -0.31000     3.089e-05   -7.646e-05  
   -0.30000     3.009e-05   -7.803e-05  
   -0.29000     2.928e-05   -7.959e-05  
   -0.28000     2.846e-05   -8.112e-05  
   -0.27000     2.762e-05   -8.263e-05  
   -0.26000     2.676e-05   -8.412e-05  
   -0.25000     2.589e-05   -8.559e-05  
   -0.24000     2.501e-05   -8.704e-05  
   -0.23000     2.411e-05   -8.847e-05  
   -0.22000     2.319e-05   -8.988e-05  
   -0.21000     2.227e-05   -9.127e-05  
   -0.20000     2.133e-05   -9.264e-05  
   -0.19000     2.037e-05   -9.398e-05  
   -0.18000     1.941e-05   -9.531e-05  
   -0.17000     1.843e-05   -9.663e-05  
   -0.16000     1.744e-05   -9.792e-05  
   -0.15000     1.643e-05   -9.919e-05  
   -0.14000     1.542e-05   -1.004e-04  
   -0.13000     1.439e-05   -1.017e-04  
   -0.12000     1.335e-05   -1.029e-04  
   -0.11000     1.229e-05   -1.041e-04  
   -0.10000     1.123e-05   -1.053e-04  
 -9.0000e-02    1.015e-05   -1.064e-04  
 -8.0000e-02    9.068e-06   -1.075e-04  
 -7.0000e-02    7.970e-06   -1.087e-04  
 -6.0000e-02    6.862e-06   -1.098e-04  
 -5.0000e-02    5.743e-06   -1.108e-04  
 -4.0000e-02    4.614e-06   -1.119e-04  
 -3.0000e-02    3.474e-06   -1.129e-04  
 -2.0000e-02    2.326e-06   -1.139e-04  
 -1.0000e-02    1.167e-06   -1.149e-04  
    0.          2.938e-21   -1.158e-04  
y
-----------------------------------------------
 ******  
 *sample netlist for bsim6

  ******  dc transfer curves tnom=  25.000 temp=  27.000 *****

   *** source        0:vg =   -0.7000        ***

x

        volt    param        param      
                    ids          gd     
   -1.30000     2.832e-05   -2.260e-21  
   -1.29000     2.822e-05    2.832e-03  
   -1.28000     2.813e-05   -9.691e-06  
   -1.27000     2.803e-05   -9.657e-06  
   -1.26000     2.794e-05   -9.623e-06  
   -1.25000     2.784e-05   -9.587e-06  
   -1.24000     2.775e-05   -9.549e-06  
   -1.23000     2.765e-05   -9.510e-06  
   -1.22000     2.756e-05   -9.470e-06  
   -1.21000     2.746e-05   -9.428e-06  
   -1.20000     2.737e-05   -9.384e-06  
   -1.19000     2.728e-05   -9.338e-06  
   -1.18000     2.718e-05   -9.291e-06  
   -1.17000     2.709e-05   -9.242e-06  
   -1.16000     2.700e-05   -9.190e-06  
   -1.15000     2.691e-05   -9.137e-06  
   -1.14000     2.682e-05   -9.081e-06  
   -1.13000     2.673e-05   -9.023e-06  
   -1.12000     2.664e-05   -8.962e-06  
   -1.11000     2.655e-05   -8.899e-06  
   -1.10000     2.646e-05   -8.834e-06  
   -1.09000     2.638e-05   -8.766e-06  
   -1.08000     2.629e-05   -8.695e-06  
   -1.07000     2.621e-05   -8.620e-06  
   -1.06000     2.612e-05   -8.543e-06  
   -1.05000     2.604e-05   -8.463e-06  
   -1.04000     2.595e-05   -8.380e-06  
   -1.03000     2.587e-05   -8.293e-06  
   -1.02000     2.579e-05   -8.203e-06  
   -1.01000     2.571e-05   -8.109e-06  
   -1.00000     2.563e-05   -8.012e-06  
   -0.99000     2.555e-05   -7.910e-06  
   -0.98000     2.548e-05   -7.805e-06  
   -0.97000     2.540e-05   -7.697e-06  
   -0.96000     2.533e-05   -7.584e-06  
   -0.95000     2.525e-05   -7.467e-06  
   -0.94000     2.518e-05   -7.346e-06  
   -0.93000     2.511e-05   -7.221e-06  
   -0.92000     2.504e-05   -7.092e-06  
   -0.91000     2.497e-05   -6.959e-06  
   -0.90000     2.491e-05   -6.822e-06  
   -0.89000     2.484e-05   -6.681e-06  
   -0.88000     2.478e-05   -6.536e-06  
   -0.87000     2.471e-05   -6.387e-06  
   -0.86000     2.465e-05   -6.234e-06  
   -0.85000     2.459e-05   -6.078e-06  
   -0.84000     2.454e-05   -5.918e-06  
   -0.83000     2.448e-05   -5.754e-06  
   -0.82000     2.443e-05   -5.588e-06  
   -0.81000     2.437e-05   -5.418e-06  
   -0.80000     2.432e-05   -5.247e-06  
   -0.79000     2.427e-05   -5.072e-06  
   -0.78000     2.423e-05   -4.896e-06  
   -0.77000     2.418e-05   -4.718e-06  
   -0.76000     2.414e-05   -4.539e-06  
   -0.75000     2.410e-05   -4.360e-06  
   -0.74000     2.406e-05   -4.180e-06  
   -0.73000     2.402e-05   -4.000e-06  
   -0.72000     2.398e-05   -3.821e-06  
   -0.71000     2.395e-05   -3.643e-06  
   -0.70000     2.391e-05   -3.467e-06  
   -0.69000     2.388e-05   -3.294e-06  
   -0.68000     2.385e-05   -3.124e-06  
   -0.67000     2.383e-05   -2.958e-06  
   -0.66000     2.380e-05   -2.798e-06  
   -0.65000     2.377e-05   -2.644e-06  
   -0.64000     2.375e-05   -2.499e-06  
   -0.63000     2.373e-05   -2.363e-06  
   -0.62000     2.371e-05   -2.239e-06  
   -0.61000     2.369e-05   -2.130e-06  
   -0.60000     2.367e-05   -2.040e-06  
   -0.59000     2.365e-05   -1.973e-06  
   -0.58000     2.363e-05   -1.935e-06  
   -0.57000     2.361e-05   -1.933e-06  
   -0.56000     2.359e-05   -1.975e-06  
   -0.55000     2.356e-05   -2.073e-06  
   -0.54000     2.354e-05   -2.237e-06  
   -0.53000     2.351e-05   -2.481e-06  
   -0.52000     2.348e-05   -2.817e-06  
   -0.51000     2.344e-05   -3.258e-06  
   -0.50000     2.340e-05   -3.814e-06  
   -0.49000     2.334e-05   -4.492e-06  
   -0.48000     2.328e-05   -5.297e-06  
   -0.47000     2.321e-05   -6.228e-06  
   -0.46000     2.312e-05   -7.283e-06  
   -0.45000     2.303e-05   -8.458e-06  
   -0.44000     2.291e-05   -9.744e-06  
   -0.43000     2.279e-05   -1.113e-05  
   -0.42000     2.265e-05   -1.262e-05  
   -0.41000     2.249e-05   -1.418e-05  
   -0.40000     2.231e-05   -1.582e-05  
   -0.39000     2.212e-05   -1.753e-05  
   -0.38000     2.191e-05   -1.929e-05  
   -0.37000     2.168e-05   -2.111e-05  
   -0.36000     2.143e-05   -2.296e-05  
   -0.35000     2.116e-05   -2.485e-05  
   -0.34000     2.088e-05   -2.676e-05  
   -0.33000     2.057e-05   -2.870e-05  
   -0.32000     2.024e-05   -3.065e-05  
   -0.31000     1.990e-05   -3.261e-05  
   -0.30000     1.953e-05   -3.458e-05  
   -0.29000     1.915e-05   -3.656e-05  
   -0.28000     1.874e-05   -3.854e-05  
   -0.27000     1.832e-05   -4.051e-05  
   -0.26000     1.787e-05   -4.248e-05  
   -0.25000     1.741e-05   -4.444e-05  
   -0.24000     1.693e-05   -4.639e-05  
   -0.23000     1.642e-05   -4.832e-05  
   -0.22000     1.590e-05   -5.025e-05  
   -0.21000     1.536e-05   -5.216e-05  
   -0.20000     1.480e-05   -5.405e-05  
   -0.19000     1.422e-05   -5.593e-05  
   -0.18000     1.363e-05   -5.779e-05  
   -0.17000     1.301e-05   -5.963e-05  
   -0.16000     1.238e-05   -6.145e-05  
   -0.15000     1.173e-05   -6.325e-05  
   -0.14000     1.106e-05   -6.503e-05  
   -0.13000     1.038e-05   -6.679e-05  
   -0.12000     9.675e-06   -6.853e-05  
   -0.11000     8.956e-06   -7.024e-05  
   -0.10000     8.220e-06   -7.194e-05  
 -9.0000e-02    7.467e-06   -7.361e-05  
 -8.0000e-02    6.698e-06   -7.525e-05  
 -7.0000e-02    5.914e-06   -7.687e-05  
 -6.0000e-02    5.113e-06   -7.847e-05  
 -5.0000e-02    4.297e-06   -8.004e-05  
 -4.0000e-02    3.466e-06   -8.158e-05  
 -3.0000e-02    2.621e-06   -8.310e-05  
 -2.0000e-02    1.761e-06   -8.458e-05  
 -1.0000e-02    8.870e-07   -8.600e-05  
    0.         -8.679e-21   -8.737e-05  
y
-----------------------------------------------
 ******  
 *sample netlist for bsim6

  ******  dc transfer curves tnom=  25.000 temp=  27.000 *****

   *** source        0:vg =   -0.4000        ***

x

        volt    param        param      
                    ids          gd     
   -1.30000     8.316e-06    6.676e-21  
   -1.29000     8.283e-06    8.316e-04  
   -1.28000     8.251e-06   -3.279e-06  
   -1.27000     8.218e-06   -3.274e-06  
   -1.26000     8.185e-06   -3.268e-06  
   -1.25000     8.153e-06   -3.262e-06  
   -1.24000     8.120e-06   -3.256e-06  
   -1.23000     8.088e-06   -3.249e-06  
   -1.22000     8.056e-06   -3.243e-06  
   -1.21000     8.023e-06   -3.237e-06  
   -1.20000     7.991e-06   -3.230e-06  
   -1.19000     7.959e-06   -3.224e-06  
   -1.18000     7.927e-06   -3.217e-06  
   -1.17000     7.895e-06   -3.211e-06  
   -1.16000     7.863e-06   -3.204e-06  
   -1.15000     7.831e-06   -3.197e-06  
   -1.14000     7.799e-06   -3.190e-06  
   -1.13000     7.767e-06   -3.182e-06  
   -1.12000     7.736e-06   -3.175e-06  
   -1.11000     7.704e-06   -3.167e-06  
   -1.10000     7.673e-06   -3.159e-06  
   -1.09000     7.641e-06   -3.151e-06  
   -1.08000     7.610e-06   -3.143e-06  
   -1.07000     7.578e-06   -3.135e-06  
   -1.06000     7.547e-06   -3.126e-06  
   -1.05000     7.516e-06   -3.117e-06  
   -1.04000     7.485e-06   -3.108e-06  
   -1.03000     7.454e-06   -3.099e-06  
   -1.02000     7.424e-06   -3.089e-06  
   -1.01000     7.393e-06   -3.079e-06  
   -1.00000     7.362e-06   -3.069e-06  
   -0.99000     7.332e-06   -3.058e-06  
   -0.98000     7.301e-06   -3.047e-06  
   -0.97000     7.271e-06   -3.035e-06  
   -0.96000     7.241e-06   -3.023e-06  
   -0.95000     7.211e-06   -3.010e-06  
   -0.94000     7.181e-06   -2.997e-06  
   -0.93000     7.152e-06   -2.984e-06  
   -0.92000     7.122e-06   -2.969e-06  
   -0.91000     7.093e-06   -2.954e-06  
   -0.90000     7.063e-06   -2.939e-06  
   -0.89000     7.034e-06   -2.923e-06  
   -0.88000     7.006e-06   -2.905e-06  
   -0.87000     6.977e-06   -2.888e-06  
   -0.86000     6.948e-06   -2.869e-06  
   -0.85000     6.920e-06   -2.849e-06  
   -0.84000     6.892e-06   -2.828e-06  
   -0.83000     6.864e-06   -2.806e-06  
   -0.82000     6.837e-06   -2.783e-06  
   -0.81000     6.809e-06   -2.759e-06  
   -0.80000     6.782e-06   -2.734e-06  
   -0.79000     6.755e-06   -2.707e-06  
   -0.78000     6.729e-06   -2.679e-06  
   -0.77000     6.703e-06   -2.649e-06  
   -0.76000     6.677e-06   -2.617e-06  
   -0.75000     6.651e-06   -2.584e-06  
   -0.74000     6.626e-06   -2.549e-06  
   -0.73000     6.602e-06   -2.512e-06  
   -0.72000     6.577e-06   -2.473e-06  
   -0.71000     6.553e-06   -2.433e-06  
   -0.70000     6.530e-06   -2.390e-06  
   -0.69000     6.507e-06   -2.345e-06  
   -0.68000     6.484e-06   -2.297e-06  
   -0.67000     6.462e-06   -2.248e-06  
   -0.66000     6.441e-06   -2.196e-06  
   -0.65000     6.420e-06   -2.142e-06  
   -0.64000     6.400e-06   -2.085e-06  
   -0.63000     6.380e-06   -2.026e-06  
   -0.62000     6.361e-06   -1.965e-06  
   -0.61000     6.343e-06   -1.902e-06  
   -0.60000     6.325e-06   -1.836e-06  
   -0.59000     6.308e-06   -1.769e-06  
   -0.58000     6.292e-06   -1.699e-06  
   -0.57000     6.276e-06   -1.628e-06  
   -0.56000     6.262e-06   -1.556e-06  
   -0.55000     6.248e-06   -1.482e-06  
   -0.54000     6.234e-06   -1.408e-06  
   -0.53000     6.222e-06   -1.332e-06  
   -0.52000     6.210e-06   -1.257e-06  
   -0.51000     6.199e-06   -1.182e-06  
   -0.50000     6.188e-06   -1.107e-06  
   -0.49000     6.179e-06   -1.032e-06  
   -0.48000     6.170e-06   -9.596e-07  
   -0.47000     6.162e-06   -8.883e-07  
   -0.46000     6.154e-06   -8.191e-07  
   -0.45000     6.147e-06   -7.524e-07  
   -0.44000     6.141e-06   -6.887e-07  
   -0.43000     6.135e-06   -6.284e-07  
   -0.42000     6.130e-06   -5.720e-07  
   -0.41000     6.125e-06   -5.200e-07  
   -0.40000     6.121e-06   -4.733e-07  
   -0.39000     6.117e-06   -4.325e-07  
   -0.38000     6.113e-06   -3.988e-07  
   -0.37000     6.110e-06   -3.735e-07  
   -0.36000     6.106e-06   -3.584e-07  
   -0.35000     6.103e-06   -3.561e-07  
   -0.34000     6.098e-06   -3.699e-07  
   -0.33000     6.094e-06   -4.043e-07  
   -0.32000     6.088e-06   -4.653e-07  
   -0.31000     6.081e-06   -5.609e-07  
   -0.30000     6.072e-06   -7.010e-07  
   -0.29000     6.061e-06   -8.981e-07  
   -0.28000     6.045e-06   -1.167e-06  
   -0.27000     6.025e-06   -1.523e-06  
   -0.26000     6.000e-06   -1.984e-06  
   -0.25000     5.967e-06   -2.565e-06  
   -0.24000     5.926e-06   -3.279e-06  
   -0.23000     5.874e-06   -4.133e-06  
   -0.22000     5.812e-06   -5.131e-06  
   -0.21000     5.736e-06   -6.270e-06  
   -0.20000     5.647e-06   -7.542e-06  
   -0.19000     5.542e-06   -8.937e-06  
   -0.18000     5.422e-06   -1.044e-05  
   -0.17000     5.285e-06   -1.205e-05  
   -0.16000     5.129e-06   -1.374e-05  
   -0.15000     4.956e-06   -1.551e-05  
   -0.14000     4.764e-06   -1.733e-05  
   -0.13000     4.553e-06   -1.921e-05  
   -0.12000     4.322e-06   -2.113e-05  
   -0.11000     4.071e-06   -2.308e-05  
   -0.10000     3.801e-06   -2.506e-05  
 -9.0000e-02    3.510e-06   -2.705e-05  
 -8.0000e-02    3.199e-06   -2.906e-05  
 -7.0000e-02    2.868e-06   -3.108e-05  
 -6.0000e-02    2.517e-06   -3.309e-05  
 -5.0000e-02    2.146e-06   -3.510e-05  
 -4.0000e-02    1.755e-06   -3.711e-05  
 -3.0000e-02    1.345e-06   -3.911e-05  
 -2.0000e-02    9.148e-07   -4.107e-05  
 -1.0000e-02    4.665e-07   -4.298e-05  
    0.          2.832e-21   -4.483e-05  
y
-----------------------------------------------

          ***** job concluded
1****** HSPICE -- G-2012.06 32-BIT (May 27 2012) RHEL32 ******                  
 ******  
 *sample netlist for bsim6

  ******  job statistics summary tnom=  25.000 temp=  27.000 *****
  
  
 ******  Machine Information  ******
 CPU:
 model name	: Intel(R) Xeon(R) CPU           E5645  @ 2.40GHz
 cpu MHz	: 2394.056
  
 OS:
 Linux version 2.6.32-504.3.3.el6.x86_64 (mockbuild@x86-028.build.eng.bos.redhat.com) (gcc version 4.4.7 20120313 (Red Hat 4.4.7-9) (GCC) ) #1 SMP Fri Dec 12 16:05:43 EST 2014


  ******  HSPICE Threads Information  ******

  Command Line Threads Count :     1
  Available CPU Count        :    12
  Actual Threads Count       :     1


