 ****** HSPICE -- G-2012.06 32-BIT (May 27 2012) RHEL32 ******                  
  Copyright (C) 2012 Synopsys, Inc. All Rights Reserved.                        
  Unpublished-rights reserved under US copyright laws.
  This program is protected by law and is subject to the
  terms and conditions of the license agreement from Synopsys.
  Use of this program is your acceptance to be bound by the
  license agreement. HSPICE is the trademark of Synopsys, Inc.
  Input File: idvd_nmos.sp                                                      
  Command line options: -hdlpath ../code -i idvd_nmos.sp -o idvd_nmos
 lic:  
 lic: FLEXlm: v10.8 
 lic: USER:   sourabh              HOSTNAME: bwrcrdsl-3.eecs.berkeley.edu 
 lic: HOSTID:                      PID:      23813 
 lic: Using FLEXlm license file: 
 lic: 1701@sunv40z-1.eecs.berkeley.edu 
 lic: Checkout 1 hspice 
 lic: License/Maintenance for hspice will expire on 19-dec-2015/2014.09 
 lic: 1(in_use)/50(total) FLOATING license(s) on SERVER sunv40z-1.eecs.berkeley.
 lic:   
 Init: read install configuration file: /tools/synopsys/hspice/G-2012.06/hspice/meta.cfg
 **info** *pvaI* Module (bsim6): 4 unexpanded port, 0 init, 2615 behav, 63 contrib, 58/2705 expr(s)

 **info** *pvaI* Resizing DB size for v count = 1

 **info** *pvaI*        Has DIS (DT ST SB), 3 afCount

 **info** *pvaI*        0 const-G and 0 const-C, Has switch branch.

 **info** *pvaI* Module (bsim6): generated 7 flow node(s) during compilation.

 **info** *pvaI* #### Total 519 line-size(s), 58 expr(s), 63 contr(s), 0 init(s), 2615 behav(s), 4 port(s)

 Loading pVA library idvd_nmos.pvadir/pvaRTL_linux.so...
1****** HSPICE -- G-2012.06 32-BIT (May 27 2012) RHEL32 ******                  
 ******  
 *sample netlist for bsim6

  ******  circuit name directory
 circuit number to circuit name directory
   number circuitname                     definition         multiplier
        0 main circuit
        1 x1.                             bsim6(va)          1.00 
 **info** *pvaI* Creating Verilog-A module 'bsim6' for X1

  
      
 *****************************************************************
 ******  option summary
 ******
 runlvl  = 3         bypass  = 2         
  Opening plot unit= 15
 file=idvd_nmos.pa0                                                            

 ******  
 *sample netlist for bsim6

  ******  dc transfer curves tnom=  25.000 temp=  27.000 *****

   *** source        0:vg =    0.4000        ***

x

        volt    param        param      
                    ids          gd     
    0.            0.           0.       
  1.0000e-02    1.333e-06      0.       
  2.0000e-02    2.605e-06    1.333e-04  
  3.0000e-02    3.818e-06    1.273e-04  
  4.0000e-02    4.971e-06    1.213e-04  
  5.0000e-02    6.063e-06    1.153e-04  
  6.0000e-02    7.095e-06    1.092e-04  
  7.0000e-02    8.067e-06    1.032e-04  
  8.0000e-02    8.978e-06    9.717e-05  
  9.0000e-02    9.830e-06    9.116e-05  
    0.10000     1.062e-05    8.519e-05  
    0.11000     1.136e-05    7.926e-05  
    0.12000     1.203e-05    7.338e-05  
    0.13000     1.265e-05    6.756e-05  
    0.14000     1.321e-05    6.182e-05  
    0.15000     1.372e-05    5.618e-05  
    0.16000     1.417e-05    5.066e-05  
    0.17000     1.457e-05    4.528e-05  
    0.18000     1.492e-05    4.007e-05  
    0.19000     1.523e-05    3.508e-05  
    0.20000     1.549e-05    3.034e-05  
    0.21000     1.570e-05    2.590e-05  
    0.22000     1.588e-05    2.182e-05  
    0.23000     1.603e-05    1.812e-05  
    0.24000     1.615e-05    1.486e-05  
    0.25000     1.625e-05    1.206e-05  
    0.26000     1.633e-05    9.706e-06  
    0.27000     1.639e-05    7.794e-06  
    0.28000     1.644e-05    6.285e-06  
    0.29000     1.649e-05    5.130e-06  
    0.30000     1.652e-05    4.273e-06  
    0.31000     1.655e-05    3.656e-06  
    0.32000     1.658e-05    3.227e-06  
    0.33000     1.661e-05    2.938e-06  
    0.34000     1.664e-05    2.753e-06  
    0.35000     1.666e-05    2.641e-06  
    0.36000     1.669e-05    2.580e-06  
    0.37000     1.671e-05    2.552e-06  
    0.38000     1.674e-05    2.546e-06  
    0.39000     1.677e-05    2.552e-06  
    0.40000     1.679e-05    2.566e-06  
    0.41000     1.682e-05    2.584e-06  
    0.42000     1.684e-05    2.602e-06  
    0.43000     1.687e-05    2.621e-06  
    0.44000     1.690e-05    2.638e-06  
    0.45000     1.692e-05    2.654e-06  
    0.46000     1.695e-05    2.668e-06  
    0.47000     1.698e-05    2.681e-06  
    0.48000     1.700e-05    2.691e-06  
    0.49000     1.703e-05    2.701e-06  
    0.50000     1.706e-05    2.709e-06  
    0.51000     1.709e-05    2.715e-06  
    0.52000     1.711e-05    2.721e-06  
    0.53000     1.714e-05    2.726e-06  
    0.54000     1.717e-05    2.730e-06  
    0.55000     1.720e-05    2.734e-06  
    0.56000     1.722e-05    2.737e-06  
    0.57000     1.725e-05    2.739e-06  
    0.58000     1.728e-05    2.741e-06  
    0.59000     1.730e-05    2.743e-06  
    0.60000     1.733e-05    2.744e-06  
    0.61000     1.736e-05    2.745e-06  
    0.62000     1.739e-05    2.746e-06  
    0.63000     1.741e-05    2.746e-06  
    0.64000     1.744e-05    2.747e-06  
    0.65000     1.747e-05    2.747e-06  
    0.66000     1.750e-05    2.747e-06  
    0.67000     1.752e-05    2.748e-06  
    0.68000     1.755e-05    2.748e-06  
    0.69000     1.758e-05    2.748e-06  
    0.70000     1.761e-05    2.748e-06  
    0.71000     1.763e-05    2.747e-06  
    0.72000     1.766e-05    2.747e-06  
    0.73000     1.769e-05    2.747e-06  
    0.74000     1.772e-05    2.747e-06  
    0.75000     1.774e-05    2.746e-06  
    0.76000     1.777e-05    2.746e-06  
    0.77000     1.780e-05    2.746e-06  
    0.78000     1.783e-05    2.746e-06  
    0.79000     1.785e-05    2.745e-06  
    0.80000     1.788e-05    2.745e-06  
    0.81000     1.791e-05    2.745e-06  
    0.82000     1.794e-05    2.744e-06  
    0.83000     1.796e-05    2.744e-06  
    0.84000     1.799e-05    2.743e-06  
    0.85000     1.802e-05    2.743e-06  
    0.86000     1.805e-05    2.743e-06  
    0.87000     1.807e-05    2.742e-06  
    0.88000     1.810e-05    2.742e-06  
    0.89000     1.813e-05    2.742e-06  
    0.90000     1.816e-05    2.741e-06  
    0.91000     1.818e-05    2.741e-06  
    0.92000     1.821e-05    2.741e-06  
    0.93000     1.824e-05    2.740e-06  
    0.94000     1.827e-05    2.740e-06  
    0.95000     1.829e-05    2.740e-06  
    0.96000     1.832e-05    2.739e-06  
    0.97000     1.835e-05    2.739e-06  
    0.98000     1.837e-05    2.739e-06  
    0.99000     1.840e-05    2.738e-06  
    1.00000     1.843e-05    2.738e-06  
    1.01000     1.846e-05    2.738e-06  
    1.02000     1.848e-05    2.737e-06  
    1.03000     1.851e-05    2.737e-06  
    1.04000     1.854e-05    2.737e-06  
    1.05000     1.857e-05    2.737e-06  
    1.06000     1.859e-05    2.736e-06  
    1.07000     1.862e-05    2.736e-06  
    1.08000     1.865e-05    2.736e-06  
    1.09000     1.868e-05    2.735e-06  
    1.10000     1.870e-05    2.735e-06  
    1.11000     1.873e-05    2.735e-06  
    1.12000     1.876e-05    2.735e-06  
    1.13000     1.879e-05    2.735e-06  
    1.14000     1.881e-05    2.734e-06  
    1.15000     1.884e-05    2.734e-06  
    1.16000     1.887e-05    2.734e-06  
    1.17000     1.889e-05    2.734e-06  
    1.18000     1.892e-05    2.733e-06  
    1.19000     1.895e-05    2.733e-06  
    1.20000     1.898e-05    2.733e-06  
    1.21000     1.900e-05    2.733e-06  
    1.22000     1.903e-05    2.733e-06  
    1.23000     1.906e-05    2.733e-06  
    1.24000     1.909e-05    2.732e-06  
    1.25000     1.911e-05    2.732e-06  
    1.26000     1.914e-05    2.732e-06  
    1.27000     1.917e-05    2.732e-06  
    1.28000     1.920e-05    2.732e-06  
    1.29000     1.922e-05    2.732e-06  
    1.30000     1.925e-05    2.731e-06  
y
-----------------------------------------------
 ******  
 *sample netlist for bsim6

  ******  dc transfer curves tnom=  25.000 temp=  27.000 *****

   *** source        0:vg =    0.7000        ***

x

        volt    param        param      
                    ids          gd     
    0.            0.           0.       
  1.0000e-02    2.728e-06   -1.925e-03  
  2.0000e-02    5.412e-06    2.728e-04  
  3.0000e-02    8.052e-06    2.684e-04  
  4.0000e-02    1.065e-05    2.640e-04  
  5.0000e-02    1.319e-05    2.594e-04  
  6.0000e-02    1.569e-05    2.548e-04  
  7.0000e-02    1.815e-05    2.501e-04  
  8.0000e-02    2.055e-05    2.453e-04  
  9.0000e-02    2.291e-05    2.404e-04  
    0.10000     2.521e-05    2.355e-04  
    0.11000     2.747e-05    2.305e-04  
    0.12000     2.967e-05    2.255e-04  
    0.13000     3.182e-05    2.203e-04  
    0.14000     3.392e-05    2.151e-04  
    0.15000     3.597e-05    2.099e-04  
    0.16000     3.796e-05    2.045e-04  
    0.17000     3.989e-05    1.992e-04  
    0.18000     4.178e-05    1.937e-04  
    0.19000     4.360e-05    1.882e-04  
    0.20000     4.537e-05    1.826e-04  
    0.21000     4.708e-05    1.770e-04  
    0.22000     4.874e-05    1.713e-04  
    0.23000     5.034e-05    1.655e-04  
    0.24000     5.187e-05    1.597e-04  
    0.25000     5.335e-05    1.538e-04  
    0.26000     5.477e-05    1.479e-04  
    0.27000     5.613e-05    1.419e-04  
    0.28000     5.743e-05    1.358e-04  
    0.29000     5.866e-05    1.297e-04  
    0.30000     5.984e-05    1.236e-04  
    0.31000     6.095e-05    1.174e-04  
    0.32000     6.200e-05    1.112e-04  
    0.33000     6.299e-05    1.050e-04  
    0.34000     6.391e-05    9.881e-05  
    0.35000     6.478e-05    9.264e-05  
    0.36000     6.558e-05    8.652e-05  
    0.37000     6.633e-05    8.047e-05  
    0.38000     6.702e-05    7.452e-05  
    0.39000     6.765e-05    6.870e-05  
    0.40000     6.822e-05    6.303e-05  
    0.41000     6.874e-05    5.756e-05  
    0.42000     6.922e-05    5.231e-05  
    0.43000     6.964e-05    4.731e-05  
    0.44000     7.003e-05    4.260e-05  
    0.45000     7.037e-05    3.819e-05  
    0.46000     7.067e-05    3.410e-05  
    0.47000     7.094e-05    3.035e-05  
    0.48000     7.118e-05    2.695e-05  
    0.49000     7.139e-05    2.389e-05  
    0.50000     7.158e-05    2.117e-05  
    0.51000     7.174e-05    1.877e-05  
    0.52000     7.189e-05    1.668e-05  
    0.53000     7.203e-05    1.488e-05  
    0.54000     7.215e-05    1.333e-05  
    0.55000     7.226e-05    1.203e-05  
    0.56000     7.236e-05    1.093e-05  
    0.57000     7.245e-05    1.001e-05  
    0.58000     7.253e-05    9.248e-06  
    0.59000     7.262e-05    8.621e-06  
    0.60000     7.269e-05    8.107e-06  
    0.61000     7.277e-05    7.688e-06  
    0.62000     7.284e-05    7.348e-06  
    0.63000     7.291e-05    7.073e-06  
    0.64000     7.297e-05    6.851e-06  
    0.65000     7.304e-05    6.673e-06  
    0.66000     7.310e-05    6.531e-06  
    0.67000     7.316e-05    6.417e-06  
    0.68000     7.323e-05    6.327e-06  
    0.69000     7.329e-05    6.255e-06  
    0.70000     7.335e-05    6.198e-06  
    0.71000     7.341e-05    6.153e-06  
    0.72000     7.347e-05    6.117e-06  
    0.73000     7.353e-05    6.089e-06  
    0.74000     7.359e-05    6.068e-06  
    0.75000     7.365e-05    6.051e-06  
    0.76000     7.371e-05    6.037e-06  
    0.77000     7.378e-05    6.027e-06  
    0.78000     7.384e-05    6.019e-06  
    0.79000     7.390e-05    6.013e-06  
    0.80000     7.396e-05    6.008e-06  
    0.81000     7.402e-05    6.004e-06  
    0.82000     7.408e-05    6.002e-06  
    0.83000     7.414e-05    5.999e-06  
    0.84000     7.420e-05    5.998e-06  
    0.85000     7.426e-05    5.996e-06  
    0.86000     7.432e-05    5.995e-06  
    0.87000     7.438e-05    5.995e-06  
    0.88000     7.444e-05    5.994e-06  
    0.89000     7.450e-05    5.993e-06  
    0.90000     7.455e-05    5.992e-06  
    0.91000     7.461e-05    5.992e-06  
    0.92000     7.467e-05    5.991e-06  
    0.93000     7.473e-05    5.991e-06  
    0.94000     7.479e-05    5.990e-06  
    0.95000     7.485e-05    5.989e-06  
    0.96000     7.491e-05    5.989e-06  
    0.97000     7.497e-05    5.988e-06  
    0.98000     7.503e-05    5.987e-06  
    0.99000     7.509e-05    5.986e-06  
    1.00000     7.515e-05    5.985e-06  
    1.01000     7.521e-05    5.984e-06  
    1.02000     7.527e-05    5.983e-06  
    1.03000     7.533e-05    5.982e-06  
    1.04000     7.539e-05    5.981e-06  
    1.05000     7.545e-05    5.980e-06  
    1.06000     7.551e-05    5.979e-06  
    1.07000     7.557e-05    5.978e-06  
    1.08000     7.563e-05    5.977e-06  
    1.09000     7.569e-05    5.976e-06  
    1.10000     7.575e-05    5.975e-06  
    1.11000     7.581e-05    5.973e-06  
    1.12000     7.587e-05    5.972e-06  
    1.13000     7.593e-05    5.971e-06  
    1.14000     7.599e-05    5.970e-06  
    1.15000     7.605e-05    5.968e-06  
    1.16000     7.611e-05    5.967e-06  
    1.17000     7.617e-05    5.966e-06  
    1.18000     7.623e-05    5.965e-06  
    1.19000     7.629e-05    5.963e-06  
    1.20000     7.635e-05    5.962e-06  
    1.21000     7.641e-05    5.961e-06  
    1.22000     7.647e-05    5.959e-06  
    1.23000     7.653e-05    5.958e-06  
    1.24000     7.659e-05    5.957e-06  
    1.25000     7.665e-05    5.956e-06  
    1.26000     7.671e-05    5.954e-06  
    1.27000     7.677e-05    5.953e-06  
    1.28000     7.682e-05    5.952e-06  
    1.29000     7.688e-05    5.950e-06  
    1.30000     7.694e-05    5.949e-06  
y
-----------------------------------------------
 ******  
 *sample netlist for bsim6

  ******  dc transfer curves tnom=  25.000 temp=  27.000 *****

   *** source        0:vg =    1.0000        ***

x

        volt    param        param      
                    ids          gd     
    0.            0.           0.       
  1.0000e-02    3.568e-06   -7.694e-03  
  2.0000e-02    7.111e-06    3.568e-04  
  3.0000e-02    1.063e-05    3.543e-04  
  4.0000e-02    1.412e-05    3.517e-04  
  5.0000e-02    1.758e-05    3.491e-04  
  6.0000e-02    2.102e-05    3.464e-04  
  7.0000e-02    2.443e-05    3.436e-04  
  8.0000e-02    2.780e-05    3.407e-04  
  9.0000e-02    3.115e-05    3.378e-04  
    0.10000     3.447e-05    3.348e-04  
    0.11000     3.776e-05    3.318e-04  
    0.12000     4.101e-05    3.287e-04  
    0.13000     4.423e-05    3.255e-04  
    0.14000     4.742e-05    3.222e-04  
    0.15000     5.058e-05    3.189e-04  
    0.16000     5.370e-05    3.155e-04  
    0.17000     5.678e-05    3.121e-04  
    0.18000     5.983e-05    3.086e-04  
    0.19000     6.285e-05    3.050e-04  
    0.20000     6.582e-05    3.014e-04  
    0.21000     6.876e-05    2.976e-04  
    0.22000     7.166e-05    2.938e-04  
    0.23000     7.452e-05    2.900e-04  
    0.24000     7.734e-05    2.861e-04  
    0.25000     8.012e-05    2.821e-04  
    0.26000     8.286e-05    2.780e-04  
    0.27000     8.556e-05    2.738e-04  
    0.28000     8.821e-05    2.696e-04  
    0.29000     9.082e-05    2.653e-04  
    0.30000     9.339e-05    2.610e-04  
    0.31000     9.591e-05    2.565e-04  
    0.32000     9.838e-05    2.520e-04  
    0.33000     1.008e-04    2.474e-04  
    0.34000     1.032e-04    2.427e-04  
    0.35000     1.055e-04    2.379e-04  
    0.36000     1.078e-04    2.331e-04  
    0.37000     1.100e-04    2.282e-04  
    0.38000     1.122e-04    2.232e-04  
    0.39000     1.143e-04    2.181e-04  
    0.40000     1.164e-04    2.129e-04  
    0.41000     1.184e-04    2.077e-04  
    0.42000     1.204e-04    2.023e-04  
    0.43000     1.223e-04    1.969e-04  
    0.44000     1.242e-04    1.914e-04  
    0.45000     1.260e-04    1.859e-04  
    0.46000     1.277e-04    1.802e-04  
    0.47000     1.294e-04    1.745e-04  
    0.48000     1.310e-04    1.688e-04  
    0.49000     1.326e-04    1.630e-04  
    0.50000     1.341e-04    1.571e-04  
    0.51000     1.356e-04    1.512e-04  
    0.52000     1.370e-04    1.453e-04  
    0.53000     1.383e-04    1.393e-04  
    0.54000     1.396e-04    1.334e-04  
    0.55000     1.408e-04    1.274e-04  
    0.56000     1.420e-04    1.215e-04  
    0.57000     1.431e-04    1.156e-04  
    0.58000     1.441e-04    1.097e-04  
    0.59000     1.451e-04    1.040e-04  
    0.60000     1.460e-04    9.828e-05  
    0.61000     1.469e-04    9.270e-05  
    0.62000     1.477e-04    8.724e-05  
    0.63000     1.485e-04    8.191e-05  
    0.64000     1.492e-04    7.674e-05  
    0.65000     1.498e-04    7.174e-05  
    0.66000     1.505e-04    6.693e-05  
    0.67000     1.511e-04    6.231e-05  
    0.68000     1.516e-04    5.791e-05  
    0.69000     1.521e-04    5.372e-05  
    0.70000     1.525e-04    4.976e-05  
    0.71000     1.530e-04    4.604e-05  
    0.72000     1.534e-04    4.254e-05  
    0.73000     1.537e-04    3.929e-05  
    0.74000     1.541e-04    3.627e-05  
    0.75000     1.544e-04    3.347e-05  
    0.76000     1.547e-04    3.091e-05  
    0.77000     1.549e-04    2.856e-05  
    0.78000     1.552e-04    2.641e-05  
    0.79000     1.554e-04    2.447e-05  
    0.80000     1.556e-04    2.271e-05  
    0.81000     1.558e-04    2.112e-05  
    0.82000     1.560e-04    1.970e-05  
    0.83000     1.562e-04    1.843e-05  
    0.84000     1.563e-04    1.730e-05  
    0.85000     1.565e-04    1.629e-05  
    0.86000     1.566e-04    1.540e-05  
    0.87000     1.568e-04    1.461e-05  
    0.88000     1.569e-04    1.392e-05  
    0.89000     1.570e-04    1.331e-05  
    0.90000     1.571e-04    1.277e-05  
    0.91000     1.573e-04    1.230e-05  
    0.92000     1.574e-04    1.189e-05  
    0.93000     1.575e-04    1.152e-05  
    0.94000     1.576e-04    1.121e-05  
    0.95000     1.577e-04    1.093e-05  
    0.96000     1.578e-04    1.069e-05  
    0.97000     1.579e-04    1.049e-05  
    0.98000     1.580e-04    1.030e-05  
    0.99000     1.581e-04    1.014e-05  
    1.00000     1.582e-04    1.001e-05  
    1.01000     1.583e-04    9.885e-06  
    1.02000     1.584e-04    9.780e-06  
    1.03000     1.585e-04    9.688e-06  
    1.04000     1.586e-04    9.608e-06  
    1.05000     1.587e-04    9.538e-06  
    1.06000     1.588e-04    9.477e-06  
    1.07000     1.589e-04    9.424e-06  
    1.08000     1.590e-04    9.377e-06  
    1.09000     1.591e-04    9.336e-06  
    1.10000     1.592e-04    9.300e-06  
    1.11000     1.593e-04    9.268e-06  
    1.12000     1.593e-04    9.240e-06  
    1.13000     1.594e-04    9.216e-06  
    1.14000     1.595e-04    9.194e-06  
    1.15000     1.596e-04    9.175e-06  
    1.16000     1.597e-04    9.158e-06  
    1.17000     1.598e-04    9.142e-06  
    1.18000     1.599e-04    9.129e-06  
    1.19000     1.600e-04    9.117e-06  
    1.20000     1.601e-04    9.106e-06  
    1.21000     1.602e-04    9.096e-06  
    1.22000     1.603e-04    9.087e-06  
    1.23000     1.604e-04    9.078e-06  
    1.24000     1.604e-04    9.071e-06  
    1.25000     1.605e-04    9.064e-06  
    1.26000     1.606e-04    9.058e-06  
    1.27000     1.607e-04    9.052e-06  
    1.28000     1.608e-04    9.046e-06  
    1.29000     1.609e-04    9.041e-06  
    1.30000     1.610e-04    9.037e-06  
y
-----------------------------------------------

          ***** job concluded
1****** HSPICE -- G-2012.06 32-BIT (May 27 2012) RHEL32 ******                  
 ******  
 *sample netlist for bsim6

  ******  job statistics summary tnom=  25.000 temp=  27.000 *****
  
  
 ******  Machine Information  ******
 CPU:
 model name	: Intel(R) Xeon(R) CPU           E5645  @ 2.40GHz
 cpu MHz	: 2394.056
  
 OS:
 Linux version 2.6.32-504.3.3.el6.x86_64 (mockbuild@x86-028.build.eng.bos.redhat.com) (gcc version 4.4.7 20120313 (Red Hat 4.4.7-9) (GCC) ) #1 SMP Fri Dec 12 16:05:43 EST 2014


  ******  HSPICE Threads Information  ******

  Command Line Threads Count :     1
  Available CPU Count        :    12
  Actual Threads Count       :     1


