 ****** HSPICE -- G-2012.06 32-BIT (May 27 2012) RHEL32 ******                  
  Copyright (C) 2012 Synopsys, Inc. All Rights Reserved.                        
  Unpublished-rights reserved under US copyright laws.
  This program is protected by law and is subject to the
  terms and conditions of the license agreement from Synopsys.
  Use of this program is your acceptance to be bound by the
  license agreement. HSPICE is the trademark of Synopsys, Inc.
  Input File: idvg_pmos.sp                                                      
  Command line options: -hdlpath ../code -i idvg_pmos.sp -o idvg_pmos
 lic:  
 lic: FLEXlm: v10.8 
 lic: USER:   sourabh              HOSTNAME: bwrcrdsl-3.eecs.berkeley.edu 
 lic: HOSTID:                      PID:      23755 
 lic: Using FLEXlm license file: 
 lic: 1701@sunv40z-1.eecs.berkeley.edu 
 lic: Checkout 1 hspice 
 lic: License/Maintenance for hspice will expire on 19-dec-2015/2014.09 
 lic: 1(in_use)/50(total) FLOATING license(s) on SERVER sunv40z-1.eecs.berkeley.
 lic:   
 Init: read install configuration file: /tools/synopsys/hspice/G-2012.06/hspice/meta.cfg
 **info** *pvaI* Module (bsim6): 4 unexpanded port, 0 init, 2615 behav, 63 contrib, 58/2705 expr(s)

 **info** *pvaI* Resizing DB size for v count = 1

 **info** *pvaI*        Has DIS (DT ST SB), 3 afCount

 **info** *pvaI*        0 const-G and 0 const-C, Has switch branch.

 **info** *pvaI* Module (bsim6): generated 7 flow node(s) during compilation.

 **info** *pvaI* #### Total 519 line-size(s), 58 expr(s), 63 contr(s), 0 init(s), 2615 behav(s), 4 port(s)

 Loading pVA library idvg_pmos.pvadir/pvaRTL_linux.so...
1****** HSPICE -- G-2012.06 32-BIT (May 27 2012) RHEL32 ******                  
 ******  
 *sample netlist for bsim6

  ******  circuit name directory
 circuit number to circuit name directory
   number circuitname                     definition         multiplier
        0 main circuit
        1 x1.                             bsim6(va)          1.00 
 **info** *pvaI* Creating Verilog-A module 'bsim6' for X1

  
      
 *****************************************************************
 ******  option summary
 ******
 runlvl  = 3         bypass  = 2         
  Opening plot unit= 15
 file=idvg_pmos.pa0                                                            

 ******  
 *sample netlist for bsim6

  ******  dc transfer curves tnom=  25.000 temp=  25.000 *****

   *** source        0:vb =    0.            ***

x

        volt    param        param        param      
                    ids          gm           gm2    
   -1.30000     6.740e-06      0.           0.       
   -1.29000     6.716e-06    6.740e-04      0.       
   -1.28000     6.690e-06   -2.475e-06    6.740e-02  
   -1.27000     6.665e-06   -2.513e-06   -6.765e-02  
   -1.26000     6.639e-06   -2.552e-06   -3.834e-06  
   -1.25000     6.613e-06   -2.592e-06   -3.891e-06  
   -1.24000     6.586e-06   -2.632e-06   -3.949e-06  
   -1.23000     6.559e-06   -2.672e-06   -4.008e-06  
   -1.22000     6.531e-06   -2.714e-06   -4.067e-06  
   -1.21000     6.503e-06   -2.755e-06   -4.128e-06  
   -1.20000     6.475e-06   -2.798e-06   -4.190e-06  
   -1.19000     6.446e-06   -2.841e-06   -4.252e-06  
   -1.18000     6.417e-06   -2.885e-06   -4.315e-06  
   -1.17000     6.387e-06   -2.929e-06   -4.379e-06  
   -1.16000     6.357e-06   -2.974e-06   -4.444e-06  
   -1.15000     6.326e-06   -3.020e-06   -4.510e-06  
   -1.14000     6.295e-06   -3.067e-06   -4.577e-06  
   -1.13000     6.263e-06   -3.114e-06   -4.643e-06  
   -1.12000     6.231e-06   -3.162e-06   -4.712e-06  
   -1.11000     6.199e-06   -3.210e-06   -4.782e-06  
   -1.10000     6.166e-06   -3.259e-06   -4.851e-06  
   -1.09000     6.132e-06   -3.309e-06   -4.923e-06  
   -1.08000     6.098e-06   -3.360e-06   -4.994e-06  
   -1.07000     6.063e-06   -3.411e-06   -5.067e-06  
   -1.06000     6.028e-06   -3.463e-06   -5.141e-06  
   -1.05000     5.992e-06   -3.516e-06   -5.215e-06  
   -1.04000     5.956e-06   -3.570e-06   -5.291e-06  
   -1.03000     5.919e-06   -3.624e-06   -5.366e-06  
   -1.02000     5.882e-06   -3.680e-06   -5.444e-06  
   -1.01000     5.844e-06   -3.736e-06   -5.521e-06  
   -1.00000     5.806e-06   -3.792e-06   -5.600e-06  
   -0.99000     5.766e-06   -3.850e-06   -5.679e-06  
   -0.98000     5.727e-06   -3.908e-06   -5.759e-06  
   -0.97000     5.687e-06   -3.968e-06   -5.839e-06  
   -0.96000     5.646e-06   -4.028e-06   -5.921e-06  
   -0.95000     5.604e-06   -4.089e-06   -6.003e-06  
   -0.94000     5.562e-06   -4.150e-06   -6.086e-06  
   -0.93000     5.519e-06   -4.213e-06   -6.169e-06  
   -0.92000     5.476e-06   -4.276e-06   -6.253e-06  
   -0.91000     5.432e-06   -4.340e-06   -6.337e-06  
   -0.90000     5.387e-06   -4.405e-06   -6.421e-06  
   -0.89000     5.342e-06   -4.471e-06   -6.507e-06  
   -0.88000     5.296e-06   -4.538e-06   -6.592e-06  
   -0.87000     5.249e-06   -4.606e-06   -6.678e-06  
   -0.86000     5.201e-06   -4.674e-06   -6.764e-06  
   -0.85000     5.153e-06   -4.744e-06   -6.850e-06  
   -0.84000     5.104e-06   -4.814e-06   -6.936e-06  
   -0.83000     5.055e-06   -4.885e-06   -7.022e-06  
   -0.82000     5.005e-06   -4.957e-06   -7.108e-06  
   -0.81000     4.954e-06   -5.030e-06   -7.194e-06  
   -0.80000     4.902e-06   -5.103e-06   -7.279e-06  
   -0.79000     4.849e-06   -5.178e-06   -7.363e-06  
   -0.78000     4.796e-06   -5.253e-06   -7.448e-06  
   -0.77000     4.742e-06   -5.329e-06   -7.531e-06  
   -0.76000     4.687e-06   -5.406e-06   -7.614e-06  
   -0.75000     4.631e-06   -5.484e-06   -7.695e-06  
   -0.74000     4.575e-06   -5.562e-06   -7.775e-06  
   -0.73000     4.518e-06   -5.642e-06   -7.853e-06  
   -0.72000     4.460e-06   -5.722e-06   -7.930e-06  
   -0.71000     4.401e-06   -5.803e-06   -8.005e-06  
   -0.70000     4.341e-06   -5.884e-06   -8.078e-06  
   -0.69000     4.281e-06   -5.966e-06   -8.147e-06  
   -0.68000     4.219e-06   -6.049e-06   -8.215e-06  
   -0.67000     4.157e-06   -6.132e-06   -8.279e-06  
   -0.66000     4.094e-06   -6.216e-06   -8.340e-06  
   -0.65000     4.030e-06   -6.301e-06   -8.397e-06  
   -0.64000     3.966e-06   -6.386e-06   -8.449e-06  
   -0.63000     3.900e-06   -6.471e-06   -8.497e-06  
   -0.62000     3.834e-06   -6.557e-06   -8.540e-06  
   -0.61000     3.766e-06   -6.643e-06   -8.576e-06  
   -0.60000     3.698e-06   -6.729e-06   -8.607e-06  
   -0.59000     3.629e-06   -6.816e-06   -8.630e-06  
   -0.58000     3.559e-06   -6.902e-06   -8.646e-06  
   -0.57000     3.489e-06   -6.989e-06   -8.653e-06  
   -0.56000     3.417e-06   -7.075e-06   -8.651e-06  
   -0.55000     3.345e-06   -7.161e-06   -8.639e-06  
   -0.54000     3.271e-06   -7.247e-06   -8.616e-06  
   -0.53000     3.197e-06   -7.332e-06   -8.580e-06  
   -0.52000     3.122e-06   -7.417e-06   -8.531e-06  
   -0.51000     3.046e-06   -7.501e-06   -8.467e-06  
   -0.50000     2.970e-06   -7.584e-06   -8.386e-06  
   -0.49000     2.892e-06   -7.666e-06   -8.288e-06  
   -0.48000     2.814e-06   -7.746e-06   -8.171e-06  
   -0.47000     2.735e-06   -7.825e-06   -8.031e-06  
   -0.46000     2.655e-06   -7.901e-06   -7.868e-06  
   -0.45000     2.575e-06   -7.976e-06   -7.679e-06  
   -0.44000     2.493e-06   -8.048e-06   -7.462e-06  
   -0.43000     2.412e-06   -8.117e-06   -7.212e-06  
   -0.42000     2.329e-06   -8.183e-06   -6.927e-06  
   -0.41000     2.246e-06   -8.246e-06   -6.604e-06  
   -0.40000     2.162e-06   -8.304e-06   -6.237e-06  
   -0.39000     2.078e-06   -8.358e-06   -5.824e-06  
   -0.38000     1.994e-06   -8.406e-06   -5.357e-06  
   -0.37000     1.909e-06   -8.448e-06   -4.832e-06  
   -0.36000     1.824e-06   -8.484e-06   -4.242e-06  
   -0.35000     1.739e-06   -8.513e-06   -3.580e-06  
   -0.34000     1.653e-06   -8.533e-06   -2.836e-06  
   -0.33000     1.568e-06   -8.543e-06   -2.003e-06  
   -0.32000     1.482e-06   -8.544e-06   -1.069e-06  
   -0.31000     1.397e-06   -8.532e-06   -2.274e-08  
   -0.30000     1.313e-06   -8.507e-06    1.149e-06  
   -0.29000     1.229e-06   -8.468e-06    2.461e-06  
   -0.28000     1.145e-06   -8.412e-06    3.931e-06  
   -0.27000     1.063e-06   -8.338e-06    5.574e-06  
   -0.26000     9.815e-07   -8.244e-06    7.412e-06  
   -0.25000     9.017e-07   -8.126e-06    9.463e-06  
   -0.24000     8.235e-07   -7.983e-06    1.175e-05  
   -0.23000     7.474e-07   -7.812e-06    1.429e-05  
   -0.22000     6.737e-07   -7.611e-06    1.710e-05  
   -0.21000     6.026e-07   -7.375e-06    2.018e-05  
   -0.20000     5.347e-07   -7.104e-06    2.352e-05  
   -0.19000     4.702e-07   -6.796e-06    2.709e-05  
   -0.18000     4.095e-07   -6.449e-06    3.084e-05  
   -0.17000     3.531e-07   -6.065e-06    3.467e-05  
   -0.16000     3.012e-07   -5.645e-06    3.845e-05  
   -0.15000     2.540e-07   -5.193e-06    4.202e-05  
   -0.14000     2.118e-07   -4.716e-06    4.517e-05  
   -0.13000     1.745e-07   -4.224e-06    4.766e-05  
   -0.12000     1.422e-07   -3.726e-06    4.926e-05  
   -0.11000     1.145e-07   -3.235e-06    4.977e-05  
   -0.10000     9.127e-08   -2.764e-06    4.906e-05  
 -9.0000e-02    7.205e-08   -2.324e-06    4.712e-05  
 -8.0000e-02    5.637e-08   -1.923e-06    4.405e-05  
 -7.0000e-02    4.377e-08   -1.567e-06    4.009e-05  
 -6.0000e-02    3.376e-08   -1.260e-06    3.554e-05  
 -5.0000e-02    2.590e-08   -1.001e-06    3.072e-05  
 -4.0000e-02    1.978e-08   -7.861e-07    2.595e-05  
 -3.0000e-02    1.506e-08   -6.119e-07    2.146e-05  
 -2.0000e-02    1.143e-08   -4.727e-07    1.742e-05  
 -1.0000e-02    8.654e-09   -3.629e-07    1.392e-05  
    0.          6.544e-09   -2.772e-07    1.098e-05  
  1.0000e-02    4.943e-09   -2.110e-07    8.565e-06  
  2.0000e-02    3.730e-09   -1.601e-07    6.624e-06  
  3.0000e-02    2.814e-09   -1.212e-07    5.088e-06  
  4.0000e-02    2.122e-09   -9.166e-08    3.888e-06  
  5.0000e-02    1.600e-09   -6.921e-08    2.959e-06  
  6.0000e-02    1.206e-09   -5.222e-08    2.245e-06  
  7.0000e-02    9.090e-10   -3.937e-08    1.699e-06  
  8.0000e-02    6.853e-10   -2.968e-08    1.284e-06  
  9.0000e-02    5.168e-10   -2.237e-08    9.695e-07  
    0.10000     3.897e-10   -1.686e-08    7.312e-07  
    0.11000     2.940e-10   -1.270e-08    5.511e-07  
    0.12000     2.219e-10   -9.573e-09    4.153e-07  
    0.13000     1.674e-10   -7.216e-09    3.129e-07  
    0.14000     1.264e-10   -5.441e-09    2.357e-07  
    0.15000     9.548e-11   -4.103e-09    1.776e-07  
    0.16000     7.212e-11   -3.094e-09    1.338e-07  
    0.17000     5.451e-11   -2.336e-09    1.008e-07  
    0.18000     4.120e-11   -1.761e-09    7.589e-08  
    0.19000     3.116e-11   -1.331e-09    5.748e-08  
    0.20000     2.358e-11   -1.004e-09    4.299e-08  
    0.21000     1.784e-11   -7.589e-10    3.268e-08  
    0.22000     1.351e-11   -5.734e-10    2.451e-08  
    0.23000     1.023e-11   -4.334e-10    1.855e-08  
    0.24000     7.745e-12   -3.276e-10    1.400e-08  
    0.25000     5.869e-12   -2.487e-10    1.059e-08  
    0.26000     4.455e-12   -1.876e-10    7.887e-09  
    0.27000     3.382e-12   -1.414e-10    6.111e-09  
    0.28000     2.558e-12   -1.073e-10    4.619e-09  
    0.29000     1.947e-12   -8.242e-11    3.411e-09  
    0.30000     1.471e-12   -6.111e-11    2.487e-09  
    0.31000     1.116e-12   -4.761e-11    2.132e-09  
    0.32000     8.455e-13   -3.553e-11    1.350e-09  
    0.33000     6.466e-13   -2.700e-11    1.208e-09  
    0.34000     4.832e-13   -1.990e-11    8.527e-10  
    0.35000     3.766e-13   -1.634e-11    7.105e-10  
    0.36000     2.913e-13   -1.066e-11    3.553e-10  
    0.37000     2.203e-13   -8.527e-12    5.684e-10  
    0.38000     1.634e-13   -7.105e-12    2.132e-10  
    0.39000     1.350e-13   -5.684e-12    1.421e-10  
    0.40000     9.237e-14   -2.842e-12    1.421e-10  
    0.41000     7.105e-14   -4.263e-12    2.842e-10  
    0.42000     4.974e-14   -2.132e-12   -1.421e-10  
    0.43000     4.263e-14   -2.132e-12    2.132e-10  
    0.44000     2.842e-14   -7.105e-13      0.       
    0.45000     2.842e-14   -1.421e-12    1.421e-10  
    0.46000     2.132e-14      0.        -7.105e-11  
    0.47000     1.421e-14   -7.105e-13    1.421e-10  
    0.48000     1.421e-14   -7.105e-13   -7.105e-11  
    0.49000     1.421e-14      0.           0.       
    0.50000     1.421e-14      0.         7.105e-11  
    0.51000       0.           0.           0.       
    0.52000       0.        -1.421e-12      0.       
    0.53000       0.           0.        -1.421e-10  
    0.54000       0.           0.         1.421e-10  
    0.55000       0.           0.           0.       
    0.56000       0.           0.           0.       
    0.57000       0.           0.           0.       
    0.58000       0.           0.           0.       
    0.59000       0.           0.           0.       
    0.60000       0.           0.           0.       
    0.61000       0.           0.           0.       
    0.62000       0.           0.           0.       
    0.63000       0.           0.           0.       
    0.64000       0.           0.           0.       
    0.65000       0.           0.           0.       
    0.66000       0.           0.           0.       
    0.67000       0.           0.           0.       
    0.68000       0.           0.           0.       
    0.69000       0.           0.           0.       
    0.70000       0.           0.           0.       
    0.71000       0.           0.           0.       
    0.72000       0.           0.           0.       
    0.73000       0.           0.           0.       
    0.74000       0.           0.           0.       
    0.75000       0.           0.           0.       
    0.76000       0.           0.           0.       
    0.77000       0.           0.           0.       
    0.78000       0.           0.           0.       
    0.79000       0.           0.           0.       
    0.80000       0.           0.           0.       
    0.81000       0.           0.           0.       
    0.82000       0.           0.           0.       
    0.83000       0.           0.           0.       
    0.84000       0.           0.           0.       
    0.85000       0.           0.           0.       
    0.86000       0.           0.           0.       
    0.87000       0.           0.           0.       
    0.88000       0.           0.           0.       
    0.89000       0.           0.           0.       
    0.90000       0.           0.           0.       
    0.91000       0.           0.           0.       
    0.92000       0.           0.           0.       
    0.93000       0.           0.           0.       
    0.94000       0.           0.           0.       
    0.95000       0.           0.           0.       
    0.96000       0.           0.           0.       
    0.97000       0.           0.           0.       
    0.98000       0.           0.           0.       
    0.99000       0.           0.           0.       
    1.00000       0.           0.           0.       
    1.01000       0.           0.           0.       
    1.02000       0.           0.           0.       
    1.03000       0.           0.           0.       
    1.04000       0.           0.           0.       
    1.05000       0.           0.           0.       
    1.06000       0.           0.           0.       
    1.07000       0.           0.           0.       
    1.08000       0.           0.           0.       
    1.09000       0.           0.           0.       
    1.10000       0.           0.           0.       
    1.11000       0.           0.           0.       
    1.12000       0.           0.           0.       
    1.13000       0.           0.           0.       
    1.14000       0.           0.           0.       
    1.15000       0.           0.           0.       
    1.16000       0.           0.           0.       
    1.17000       0.           0.           0.       
    1.18000       0.           0.           0.       
    1.19000       0.           0.           0.       
    1.20000       0.           0.           0.       
    1.21000       0.           0.           0.       
    1.22000       0.           0.           0.       
    1.23000       0.           0.           0.       
    1.24000       0.           0.           0.       
    1.25000       0.           0.           0.       
    1.26000       0.           0.           0.       
    1.27000       0.           0.           0.       
    1.28000       0.           0.           0.       
    1.29000       0.           0.           0.       
    1.30000       0.           0.           0.       
y
-----------------------------------------------
 ******  
 *sample netlist for bsim6

  ******  dc transfer curves tnom=  25.000 temp=  25.000 *****

   *** source        0:vb =   -0.1000        ***

x

        volt    param        param        param      
                    ids          gm           gm2    
   -1.30000     6.814e-06      0.           0.       
   -1.29000     6.789e-06    6.814e-04      0.       
   -1.28000     6.764e-06   -2.442e-06    6.814e-02  
   -1.27000     6.739e-06   -2.480e-06   -6.838e-02  
   -1.26000     6.714e-06   -2.519e-06   -3.816e-06  
   -1.25000     6.688e-06   -2.558e-06   -3.873e-06  
   -1.24000     6.661e-06   -2.598e-06   -3.932e-06  
   -1.23000     6.635e-06   -2.638e-06   -3.990e-06  
   -1.22000     6.607e-06   -2.680e-06   -4.050e-06  
   -1.21000     6.580e-06   -2.721e-06   -4.111e-06  
   -1.20000     6.552e-06   -2.764e-06   -4.172e-06  
   -1.19000     6.523e-06   -2.807e-06   -4.235e-06  
   -1.18000     6.494e-06   -2.850e-06   -4.298e-06  
   -1.17000     6.465e-06   -2.895e-06   -4.362e-06  
   -1.16000     6.435e-06   -2.939e-06   -4.427e-06  
   -1.15000     6.405e-06   -2.985e-06   -4.493e-06  
   -1.14000     6.374e-06   -3.031e-06   -4.560e-06  
   -1.13000     6.343e-06   -3.078e-06   -4.627e-06  
   -1.12000     6.311e-06   -3.126e-06   -4.696e-06  
   -1.11000     6.279e-06   -3.174e-06   -4.765e-06  
   -1.10000     6.246e-06   -3.223e-06   -4.835e-06  
   -1.09000     6.213e-06   -3.273e-06   -4.907e-06  
   -1.08000     6.179e-06   -3.324e-06   -4.979e-06  
   -1.07000     6.145e-06   -3.375e-06   -5.051e-06  
   -1.06000     6.110e-06   -3.427e-06   -5.126e-06  
   -1.05000     6.074e-06   -3.480e-06   -5.200e-06  
   -1.04000     6.039e-06   -3.533e-06   -5.276e-06  
   -1.03000     6.002e-06   -3.587e-06   -5.352e-06  
   -1.02000     5.965e-06   -3.643e-06   -5.429e-06  
   -1.01000     5.928e-06   -3.698e-06   -5.507e-06  
   -1.00000     5.889e-06   -3.755e-06   -5.586e-06  
   -0.99000     5.851e-06   -3.813e-06   -5.665e-06  
   -0.98000     5.811e-06   -3.871e-06   -5.746e-06  
   -0.97000     5.772e-06   -3.930e-06   -5.827e-06  
   -0.96000     5.731e-06   -3.990e-06   -5.909e-06  
   -0.95000     5.690e-06   -4.051e-06   -5.991e-06  
   -0.94000     5.648e-06   -4.112e-06   -6.074e-06  
   -0.93000     5.606e-06   -4.175e-06   -6.158e-06  
   -0.92000     5.563e-06   -4.238e-06   -6.242e-06  
   -0.91000     5.519e-06   -4.302e-06   -6.327e-06  
   -0.90000     5.475e-06   -4.367e-06   -6.412e-06  
   -0.89000     5.430e-06   -4.433e-06   -6.498e-06  
   -0.88000     5.384e-06   -4.499e-06   -6.584e-06  
   -0.87000     5.338e-06   -4.567e-06   -6.671e-06  
   -0.86000     5.291e-06   -4.635e-06   -6.757e-06  
   -0.85000     5.243e-06   -4.705e-06   -6.844e-06  
   -0.84000     5.195e-06   -4.775e-06   -6.931e-06  
   -0.83000     5.145e-06   -4.846e-06   -7.018e-06  
   -0.82000     5.095e-06   -4.918e-06   -7.105e-06  
   -0.81000     5.045e-06   -4.991e-06   -7.191e-06  
   -0.80000     4.993e-06   -5.064e-06   -7.278e-06  
   -0.79000     4.941e-06   -5.139e-06   -7.364e-06  
   -0.78000     4.888e-06   -5.214e-06   -7.449e-06  
   -0.77000     4.835e-06   -5.290e-06   -7.534e-06  
   -0.76000     4.780e-06   -5.367e-06   -7.618e-06  
