 ****** HSPICE -- G-2012.06 32-BIT (May 27 2012) RHEL32 ******                  
  Copyright (C) 2012 Synopsys, Inc. All Rights Reserved.                        
  Unpublished-rights reserved under US copyright laws.
  This program is protected by law and is subject to the
  terms and conditions of the license agreement from Synopsys.
  Use of this program is your acceptance to be bound by the
  license agreement. HSPICE is the trademark of Synopsys, Inc.
  Input File: idvg_nmos.sp                                                      
  Command line options: -hdlpath ../code -i idvg_nmos.sp -o idvg_nmos
 lic:  
 lic: FLEXlm: v10.8 
 lic: USER:   sourabh              HOSTNAME: bwrcrdsl-3.eecs.berkeley.edu 
 lic: HOSTID:                      PID:      23689 
 lic: Using FLEXlm license file: 
 lic: 1701@sunv40z-1.eecs.berkeley.edu 
 lic: Checkout 1 hspice 
 lic: License/Maintenance for hspice will expire on 19-dec-2015/2014.09 
 lic: 1(in_use)/50(total) FLOATING license(s) on SERVER sunv40z-1.eecs.berkeley.
 lic:   
 Init: read install configuration file: /tools/synopsys/hspice/G-2012.06/hspice/meta.cfg
 **info** *pvaI* Module (bsim6): 4 unexpanded port, 0 init, 2615 behav, 63 contrib, 58/2705 expr(s)

 **info** *pvaI* Resizing DB size for v count = 1

 **info** *pvaI*        Has DIS (DT ST SB), 3 afCount

 **info** *pvaI*        0 const-G and 0 const-C, Has switch branch.

 **info** *pvaI* Module (bsim6): generated 7 flow node(s) during compilation.

 **info** *pvaI* #### Total 519 line-size(s), 58 expr(s), 63 contr(s), 0 init(s), 2615 behav(s), 4 port(s)

 Loading pVA library idvg_nmos.pvadir/pvaRTL_linux.so...
1****** HSPICE -- G-2012.06 32-BIT (May 27 2012) RHEL32 ******                  
 ******  
 *sample netlist for bsim6

  ******  circuit name directory
 circuit number to circuit name directory
   number circuitname                     definition         multiplier
        0 main circuit
        1 x1.                             bsim6(va)          1.00 
 **info** *pvaI* Creating Verilog-A module 'bsim6' for X1

  
      
 *****************************************************************
 ******  option summary
 ******
 runlvl  = 3         bypass  = 2         
  Opening plot unit= 15
 file=idvg_nmos.pa0                                                            

 ******  
 *sample netlist for bsim6

  ******  dc transfer curves tnom=  25.000 temp=  25.000 *****

   *** source        0:vb =   -0.3000        ***

x

        volt    param        param        param        current    
                    ids          gm           gm2          vd     
   -1.30000     1.342e-08      0.           0.        -1.342e-08  
   -1.29000     1.308e-08    1.342e-06      0.        -1.308e-08  
   -1.28000     1.275e-08   -3.398e-08    1.342e-04   -1.275e-08  
   -1.27000     1.243e-08   -3.327e-08   -1.376e-04   -1.243e-08  
   -1.26000     1.211e-08   -3.256e-08    7.134e-08   -1.211e-08  
   -1.25000     1.180e-08   -3.187e-08    7.049e-08   -1.180e-08  
   -1.24000     1.149e-08   -3.119e-08    6.899e-08   -1.149e-08  
   -1.23000     1.119e-08   -3.052e-08    6.821e-08   -1.119e-08  
   -1.22000     1.090e-08   -2.986e-08    6.651e-08   -1.090e-08  
   -1.21000     1.061e-08   -2.922e-08    6.594e-08   -1.061e-08  
   -1.20000     1.033e-08   -2.858e-08    6.459e-08   -1.033e-08  
   -1.19000     1.006e-08   -2.796e-08    6.366e-08   -1.006e-08  
   -1.18000     9.794e-09   -2.734e-08    6.246e-08   -9.794e-09  
   -1.17000     9.532e-09   -2.674e-08    6.132e-08   -9.532e-09  
   -1.16000     9.276e-09   -2.615e-08    6.033e-08   -9.276e-09  
   -1.15000     9.027e-09   -2.556e-08    5.933e-08   -9.027e-09  
   -1.14000     8.782e-09   -2.499e-08    5.841e-08   -8.782e-09  
   -1.13000     8.544e-09   -2.443e-08    5.720e-08   -8.544e-09  
   -1.12000     8.310e-09   -2.388e-08    5.627e-08   -8.310e-09  
   -1.11000     8.082e-09   -2.333e-08    5.521e-08   -8.082e-09  
   -1.10000     7.859e-09   -2.280e-08    5.443e-08   -7.859e-09  
   -1.09000     7.642e-09   -2.228e-08    5.322e-08   -7.642e-09  
   -1.08000     7.429e-09   -2.176e-08    5.244e-08   -7.429e-09  
   -1.07000     7.222e-09   -2.126e-08    5.130e-08   -7.222e-09  
   -1.06000     7.019e-09   -2.076e-08    5.059e-08   -7.019e-09  
   -1.05000     6.821e-09   -2.027e-08    4.952e-08   -6.821e-09  
   -1.04000     6.628e-09   -1.980e-08    4.867e-08   -6.628e-09  
   -1.03000     6.439e-09   -1.933e-08    4.775e-08   -6.439e-09  
   -1.02000     6.255e-09   -1.887e-08    4.690e-08   -6.255e-09  
   -1.01000     6.075e-09   -1.842e-08    4.597e-08   -6.075e-09  
   -1.00000     5.900e-09   -1.798e-08    4.519e-08   -5.900e-09  
   -0.99000     5.729e-09   -1.754e-08    4.412e-08   -5.729e-09  
   -0.98000     5.562e-09   -1.711e-08    4.349e-08   -5.562e-09  
   -0.97000     5.399e-09   -1.670e-08    4.270e-08   -5.399e-09  
   -0.96000     5.240e-09   -1.629e-08    4.171e-08   -5.240e-09  
   -0.95000     5.085e-09   -1.588e-08    4.093e-08   -5.085e-09  
   -0.94000     4.934e-09   -1.549e-08    4.029e-08   -4.934e-09  
   -0.93000     4.787e-09   -1.510e-08    3.922e-08   -4.787e-09  
   -0.92000     4.643e-09   -1.473e-08    3.872e-08   -4.643e-09  
   -0.91000     4.503e-09   -1.436e-08    3.787e-08   -4.503e-09  
   -0.90000     4.367e-09   -1.399e-08    3.695e-08   -4.367e-09  
   -0.89000     4.234e-09   -1.364e-08    3.638e-08   -4.234e-09  
   -0.88000     4.104e-09   -1.329e-08    3.574e-08   -4.104e-09  
   -0.87000     3.978e-09   -1.295e-08    3.482e-08   -3.978e-09  
   -0.86000     3.855e-09   -1.261e-08    3.418e-08   -3.855e-09  
   -0.85000     3.736e-09   -1.228e-08    3.347e-08   -3.736e-09  
   -0.84000     3.619e-09   -1.196e-08    3.268e-08   -3.619e-09  
   -0.83000     3.506e-09   -1.165e-08    3.233e-08   -3.506e-09  
   -0.82000     3.396e-09   -1.134e-08    3.119e-08   -3.396e-09  
   -0.81000     3.288e-09   -1.104e-08    3.091e-08   -3.288e-09  
   -0.80000     3.184e-09   -1.074e-08    2.998e-08   -3.184e-09  
   -0.79000     3.082e-09   -1.045e-08    2.956e-08   -3.082e-09  
   -0.78000     2.983e-09   -1.017e-08    2.892e-08   -2.983e-09  
   -0.77000     2.887e-09   -9.899e-09    2.807e-08   -2.887e-09  
   -0.76000     2.793e-09   -9.627e-09    2.750e-08   -2.793e-09  
   -0.75000     2.702e-09   -9.363e-09    2.721e-08   -2.702e-09  
   -0.74000     2.613e-09   -9.106e-09    2.643e-08   -2.613e-09  
   -0.73000     2.527e-09   -8.853e-09    2.565e-08   -2.527e-09  
   -0.72000     2.444e-09   -8.605e-09    2.530e-08   -2.444e-09  
   -0.71000     2.362e-09   -8.365e-09    2.480e-08   -2.362e-09  
   -0.70000     2.283e-09   -8.129e-09    2.402e-08   -2.283e-09  
   -0.69000     2.207e-09   -7.900e-09    2.359e-08   -2.207e-09  
   -0.68000     2.132e-09   -7.673e-09    2.295e-08   -2.132e-09  
   -0.67000     2.060e-09   -7.454e-09    2.267e-08   -2.060e-09  
   -0.66000     1.989e-09   -7.239e-09    2.196e-08   -1.989e-09  
   -0.65000     1.921e-09   -7.029e-09    2.146e-08   -1.921e-09  
   -0.64000     1.855e-09   -6.825e-09    2.096e-08   -1.855e-09  
   -0.63000     1.791e-09   -6.624e-09    2.046e-08   -1.791e-09  
   -0.62000     1.728e-09   -6.430e-09    2.004e-08   -1.728e-09  
   -0.61000     1.668e-09   -6.237e-09    1.947e-08   -1.668e-09  
   -0.60000     1.609e-09   -6.055e-09    1.926e-08   -1.609e-09  
   -0.59000     1.552e-09   -5.871e-09    1.826e-08   -1.552e-09  
   -0.58000     1.497e-09   -5.695e-09    1.833e-08   -1.497e-09  
   -0.57000     1.443e-09   -5.521e-09    1.762e-08   -1.443e-09  
   -0.56000     1.391e-09   -5.353e-09    1.741e-08   -1.391e-09  
   -0.55000     1.341e-09   -5.189e-09    1.677e-08   -1.341e-09  
   -0.54000     1.292e-09   -5.029e-09    1.641e-08   -1.292e-09  
   -0.53000     1.245e-09   -4.874e-09    1.599e-08   -1.245e-09  
   -0.52000     1.199e-09   -4.721e-09    1.549e-08   -1.199e-09  
   -0.51000     1.155e-09   -4.574e-09    1.535e-08   -1.155e-09  
   -0.50000     1.112e-09   -4.427e-09    1.464e-08   -1.112e-09  
   -0.49000     1.071e-09   -4.289e-09    1.471e-08   -1.071e-09  
   -0.48000     1.031e-09   -4.151e-09    1.386e-08   -1.031e-09  
   -0.47000     9.917e-10   -4.020e-09    1.378e-08   -9.917e-10  
   -0.46000     9.541e-10   -3.889e-09    1.315e-08   -9.541e-10  
   -0.45000     9.177e-10   -3.762e-09    1.307e-08   -9.177e-10  
   -0.44000     8.825e-10   -3.639e-09    1.272e-08   -8.825e-10  
   -0.43000     8.485e-10   -3.519e-09    1.229e-08   -8.485e-10  
   -0.42000     8.156e-10   -3.403e-09    1.201e-08   -8.156e-10  
   -0.41000     7.838e-10   -3.289e-09    1.151e-08   -7.838e-10  
   -0.40000     7.530e-10   -3.182e-09    1.144e-08   -7.530e-10  
   -0.39000     7.234e-10   -3.072e-09    1.073e-08   -7.234e-10  
   -0.38000     6.947e-10   -2.968e-09    1.101e-08   -6.947e-10  
   -0.37000     6.670e-10   -2.867e-09    1.037e-08   -6.670e-10  
   -0.36000     6.403e-10   -2.768e-09    1.009e-08   -6.403e-10  
   -0.35000     6.145e-10   -2.673e-09    9.877e-09   -6.145e-10  
   -0.34000     5.896e-10   -2.582e-09    9.521e-09   -5.896e-10  
   -0.33000     5.656e-10   -2.488e-09    9.095e-09   -5.656e-10  
   -0.32000     5.424e-10   -2.402e-09    9.379e-09   -5.424e-10  
   -0.31000     5.201e-10   -2.315e-09    8.598e-09   -5.201e-10  
   -0.30000     4.986e-10   -2.233e-09    8.740e-09   -4.986e-10  
   -0.29000     4.778e-10   -2.151e-09    8.171e-09   -4.778e-10  
   -0.28000     4.579e-10   -2.072e-09    8.242e-09   -4.579e-10  
   -0.27000     4.387e-10   -1.993e-09    7.887e-09   -4.387e-10  
   -0.26000     4.203e-10   -1.918e-09    7.887e-09   -4.203e-10  
   -0.25000     4.026e-10   -1.842e-09    7.532e-09   -4.026e-10  
   -0.24000     3.857e-10   -1.769e-09    7.532e-09   -3.857e-10  
   -0.23000     3.696e-10   -1.692e-09    7.390e-09   -3.696e-10  
   -0.22000     3.542e-10   -1.615e-09    7.674e-09   -3.542e-10  
   -0.21000     3.397e-10   -1.536e-09    7.674e-09   -3.397e-10  
   -0.20000     3.260e-10   -1.454e-09    7.887e-09   -3.260e-10  
   -0.19000     3.134e-10   -1.364e-09    8.242e-09   -3.134e-10  
   -0.18000     3.019e-10   -1.265e-09    9.024e-09   -3.019e-10  
   -0.17000     2.917e-10   -1.152e-09    9.805e-09   -2.917e-10  
   -0.16000     2.831e-10   -1.018e-09    1.137e-08   -2.831e-10  
   -0.15000     2.765e-10   -8.569e-10    1.336e-08   -2.765e-10  
   -0.14000     2.725e-10   -6.587e-10    1.613e-08   -2.725e-10  
   -0.13000     2.717e-10   -4.036e-10    1.982e-08   -2.717e-10  
   -0.12000     2.753e-10   -7.390e-11    2.551e-08   -2.753e-10  
   -0.11000     2.847e-10    3.595e-10    3.297e-08   -2.847e-10  
   -0.10000     3.018e-10    9.351e-10    4.334e-08   -3.018e-10  
 -9.0000e-02    3.293e-10    1.709e-09    5.755e-08   -3.293e-10  
 -8.0000e-02    3.710e-10    2.753e-09    7.738e-08   -3.710e-10  
 -7.0000e-02    4.321e-10    4.172e-09    1.044e-07   -4.321e-10  
 -6.0000e-02    5.194e-10    6.103e-09    1.420e-07   -5.194e-10  
 -5.0000e-02    6.429e-10    8.739e-09    1.931e-07   -6.429e-10  
 -4.0000e-02    8.157e-10    1.234e-08    2.636e-07   -8.157e-10  
 -3.0000e-02    1.056e-09    1.728e-08    3.605e-07   -1.056e-09  
 -2.0000e-02    1.389e-09    2.405e-08    4.936e-07   -1.389e-09  
 -1.0000e-02    1.850e-09    3.332e-08    6.766e-07   -1.850e-09  
    0.          2.484e-09    4.604e-08    9.273e-07   -2.484e-09  
  1.0000e-02    3.358e-09    6.347e-08    1.272e-06   -3.358e-09  
  2.0000e-02    4.559e-09    8.736e-08    1.743e-06   -4.559e-09  
  3.0000e-02    6.207e-09    1.201e-07    2.389e-06   -6.207e-09  
  4.0000e-02    8.466e-09    1.648e-07    3.271e-06   -8.466e-09  
  5.0000e-02    1.156e-08    2.259e-07    4.474e-06   -1.156e-08  
  6.0000e-02    1.578e-08    3.091e-07    6.108e-06   -1.578e-08  
  7.0000e-02    2.152e-08    4.219e-07    8.317e-06   -2.152e-08  
  8.0000e-02    2.931e-08    5.744e-07    1.129e-05   -2.931e-08  
  9.0000e-02    3.982e-08    7.790e-07    1.525e-05   -3.982e-08  
    0.10000     5.392e-08    1.051e-06    2.046e-05   -5.392e-08  
    0.11000     7.268e-08    1.410e-06    2.724e-05   -7.268e-08  
    0.12000     9.739e-08    1.876e-06    3.587e-05   -9.739e-08  
    0.13000     1.295e-07    2.471e-06    4.659e-05   -1.295e-07  
    0.14000     1.708e-07    3.215e-06    5.949e-05   -1.708e-07  
    0.15000     2.228e-07    4.124e-06    7.443e-05   -2.228e-07  
    0.16000     2.874e-07    5.205e-06    9.091e-05   -2.874e-07  
    0.17000     3.658e-07    6.453e-06    1.081e-04   -3.658e-07  
    0.18000     4.595e-07    7.848e-06    1.248e-04   -4.595e-07  
    0.19000     5.689e-07    9.361e-06    1.396e-04   -5.689e-07  
    0.20000     6.946e-07    1.095e-05    1.513e-04   -6.946e-07  
    0.21000     8.363e-07    1.257e-05    1.588e-04   -8.363e-07  
    0.22000     9.934e-07    1.417e-05    1.617e-04   -9.934e-07  
    0.23000     1.165e-06    1.571e-05    1.602e-04   -1.165e-06  
    0.24000     1.350e-06    1.717e-05    1.546e-04   -1.350e-06  
    0.25000     1.548e-06    1.853e-05    1.459e-04   -1.548e-06  
    0.26000     1.757e-06    1.976e-05    1.352e-04   -1.757e-06  
    0.27000     1.975e-06    2.086e-05    1.232e-04   -1.975e-06  
    0.28000     2.202e-06    2.185e-05    1.107e-04   -2.202e-06  
    0.29000     2.437e-06    2.271e-05    9.840e-05   -2.437e-06  
    0.30000     2.678e-06    2.347e-05    8.655e-05   -2.678e-06  
    0.31000     2.925e-06    2.412e-05    7.543e-05   -2.925e-06  
    0.32000     3.176e-06    2.468e-05    6.519e-05   -3.176e-06  
    0.33000     3.432e-06    2.515e-05    5.585e-05   -3.432e-06  
    0.34000     3.691e-06    2.555e-05    4.739e-05   -3.691e-06  
    0.35000     3.952e-06    2.588e-05    3.976e-05   -3.952e-06  
    0.36000     4.216e-06    2.615e-05    3.288e-05   -4.216e-06  
    0.37000     4.481e-06    2.636e-05    2.668e-05   -4.481e-06  
    0.38000     4.747e-06    2.652e-05    2.109e-05   -4.747e-06  
    0.39000     5.014e-06    2.663e-05    1.604e-05   -5.014e-06  
    0.40000     5.282e-06    2.670e-05    1.148e-05   -5.282e-06  
    0.41000     5.549e-06    2.674e-05    7.346e-06   -5.549e-06  
    0.42000     5.816e-06    2.674e-05    3.595e-06   -5.816e-06  
    0.43000     6.083e-06    2.671e-05    1.867e-07   -6.083e-06  
    0.44000     6.349e-06    2.666e-05   -2.916e-06   -6.349e-06  
    0.45000     6.613e-06    2.657e-05   -5.745e-06   -6.613e-06  
    0.46000     6.877e-06    2.647e-05   -8.327e-06   -6.877e-06  
    0.47000     7.138e-06    2.634e-05   -1.069e-05   -7.138e-06  
    0.48000     7.399e-06    2.619e-05   -1.285e-05   -7.399e-06  
    0.49000     7.657e-06    2.602e-05   -1.482e-05   -7.657e-06  
    0.50000     7.914e-06    2.584e-05   -1.664e-05   -7.914e-06  
    0.51000     8.168e-06    2.564e-05   -1.829e-05   -8.168e-06  
    0.52000     8.420e-06    2.543e-05   -1.982e-05   -8.420e-06  
    0.53000     8.670e-06    2.520e-05   -2.121e-05   -8.670e-06  
    0.54000     8.917e-06    2.497e-05   -2.249e-05   -8.917e-06  
    0.55000     9.161e-06    2.472e-05   -2.365e-05   -9.161e-06  
    0.56000     9.403e-06    2.446e-05   -2.472e-05   -9.403e-06  
    0.57000     9.643e-06    2.420e-05   -2.570e-05   -9.643e-06  
    0.58000     9.879e-06    2.392e-05   -2.659e-05   -9.879e-06  
    0.59000     1.011e-05    2.364e-05   -2.739e-05   -1.011e-05  
    0.60000     1.034e-05    2.336e-05   -2.813e-05   -1.034e-05  
    0.61000     1.057e-05    2.306e-05   -2.879e-05   -1.057e-05  
    0.62000     1.080e-05    2.276e-05   -2.939e-05   -1.080e-05  
    0.63000     1.102e-05    2.246e-05   -2.992e-05   -1.102e-05  
    0.64000     1.124e-05    2.215e-05   -3.040e-05   -1.124e-05  
    0.65000     1.145e-05    2.184e-05   -3.082e-05   -1.145e-05  
    0.66000     1.166e-05    2.152e-05   -3.119e-05   -1.166e-05  
    0.67000     1.187e-05    2.120e-05   -3.152e-05   -1.187e-05  
    0.68000     1.208e-05    2.088e-05   -3.180e-05   -1.208e-05  
    0.69000     1.228e-05    2.056e-05   -3.203e-05   -1.228e-05  
    0.70000     1.248e-05    2.024e-05   -3.223e-05   -1.248e-05  
    0.71000     1.267e-05    1.991e-05   -3.239e-05   -1.267e-05  
    0.72000     1.287e-05    1.959e-05   -3.251e-05   -1.287e-05  
    0.73000     1.306e-05    1.926e-05   -3.260e-05   -1.306e-05  
    0.74000     1.324e-05    1.893e-05   -3.265e-05   -1.324e-05  
    0.75000     1.343e-05    1.861e-05   -3.268e-05   -1.343e-05  
    0.76000     1.360e-05    1.828e-05   -3.268e-05   -1.360e-05  
    0.77000     1.378e-05    1.795e-05   -3.265e-05   -1.378e-05  
    0.78000     1.395e-05    1.763e-05   -3.259e-05   -1.395e-05  
    0.79000     1.412e-05    1.731e-05   -3.252e-05   -1.412e-05  
    0.80000     1.429e-05    1.698e-05   -3.242e-05   -1.429e-05  
    0.81000     1.445e-05    1.666e-05   -3.230e-05   -1.445e-05  
    0.82000     1.461e-05    1.634e-05   -3.216e-05   -1.461e-05  
    0.83000     1.477e-05    1.602e-05   -3.200e-05   -1.477e-05  
    0.84000     1.493e-05    1.571e-05   -3.182e-05   -1.493e-05  
    0.85000     1.508e-05    1.539e-05   -3.163e-05   -1.508e-05  
    0.86000     1.522e-05    1.508e-05   -3.142e-05   -1.522e-05  
    0.87000     1.537e-05    1.477e-05   -3.120e-05   -1.537e-05  
    0.88000     1.551e-05    1.446e-05   -3.097e-05   -1.551e-05  
    0.89000     1.565e-05    1.416e-05   -3.072e-05   -1.565e-05  
    0.90000     1.578e-05    1.386e-05   -3.047e-05   -1.578e-05  
    0.91000     1.592e-05    1.356e-05   -3.020e-05   -1.592e-05  
    0.92000     1.605e-05    1.326e-05   -2.992e-05   -1.605e-05  
    0.93000     1.617e-05    1.297e-05   -2.963e-05   -1.617e-05  
    0.94000     1.630e-05    1.268e-05   -2.934e-05   -1.630e-05  
    0.95000     1.642e-05    1.239e-05   -2.903e-05   -1.642e-05  
    0.96000     1.654e-05    1.211e-05   -2.873e-05   -1.654e-05  
    0.97000     1.665e-05    1.183e-05   -2.841e-05   -1.665e-05  
    0.98000     1.676e-05    1.155e-05   -2.809e-05   -1.676e-05  
    0.99000     1.687e-05    1.127e-05   -2.776e-05   -1.687e-05  
    1.00000     1.698e-05    1.100e-05   -2.743e-05   -1.698e-05  
    1.01000     1.709e-05    1.073e-05   -2.710e-05   -1.709e-05  
    1.02000     1.719e-05    1.047e-05   -2.676e-05   -1.719e-05  
    1.03000     1.729e-05    1.021e-05   -2.642e-05   -1.729e-05  
    1.04000     1.739e-05    9.952e-06   -2.607e-05   -1.739e-05  
    1.05000     1.748e-05    9.699e-06   -2.572e-05   -1.748e-05  
    1.06000     1.757e-05    9.448e-06   -2.538e-05   -1.757e-05  
    1.07000     1.766e-05    9.202e-06   -2.503e-05   -1.766e-05  
    1.08000     1.775e-05    8.958e-06   -2.468e-05   -1.775e-05  
    1.09000     1.783e-05    8.719e-06   -2.432e-05   -1.783e-05  
    1.10000     1.792e-05    8.482e-06   -2.397e-05   -1.792e-05  
    1.11000     1.800e-05    8.250e-06   -2.362e-05   -1.800e-05  
    1.12000     1.807e-05    8.021e-06   -2.327e-05   -1.807e-05  
    1.13000     1.815e-05    7.795e-06   -2.292e-05   -1.815e-05  
    1.14000     1.822e-05    7.573e-06   -2.257e-05   -1.822e-05  
    1.15000     1.829e-05    7.354e-06   -2.222e-05   -1.829e-05  
    1.16000     1.836e-05    7.139e-06   -2.187e-05   -1.836e-05  
    1.17000     1.843e-05    6.927e-06   -2.153e-05   -1.843e-05  
    1.18000     1.850e-05    6.718e-06   -2.118e-05   -1.850e-05  
    1.19000     1.856e-05    6.513e-06   -2.084e-05   -1.856e-05  
    1.20000     1.862e-05    6.312e-06   -2.050e-05   -1.862e-05  
    1.21000     1.868e-05    6.114e-06   -2.016e-05   -1.868e-05  
    1.22000     1.874e-05    5.919e-06   -1.982e-05   -1.874e-05  
    1.23000     1.879e-05    5.727e-06   -1.949e-05   -1.879e-05  
    1.24000     1.885e-05    5.539e-06   -1.916e-05   -1.885e-05  
    1.25000     1.890e-05    5.354e-06   -1.883e-05   -1.890e-05  
    1.26000     1.895e-05    5.172e-06   -1.851e-05   -1.895e-05  
    1.27000     1.900e-05    4.993e-06   -1.818e-05   -1.900e-05  
    1.28000     1.904e-05    4.818e-06   -1.786e-05   -1.904e-05  
