 ****** HSPICE -- G-2012.06 32-BIT (May 27 2012) RHEL32 ******                  
  Copyright (C) 2012 Synopsys, Inc. All Rights Reserved.                        
  Unpublished-rights reserved under US copyright laws.
  This program is protected by law and is subject to the
  terms and conditions of the license agreement from Synopsys.
  Use of this program is your acceptance to be bound by the
  license agreement. HSPICE is the trademark of Synopsys, Inc.
  Input File: inv_dc.sp                                                         
  Command line options: -hdlpath ../code -i inv_dc.sp -o inv_dc
 lic:  
 lic: FLEXlm: v10.8 
 lic: USER:   sourabh              HOSTNAME: bwrcrdsl-3.eecs.berkeley.edu 
 lic: HOSTID:                      PID:      24111 
 lic: Using FLEXlm license file: 
 lic: 1701@sunv40z-1.eecs.berkeley.edu 
 lic: Checkout 1 hspice 
 lic: License/Maintenance for hspice will expire on 19-dec-2015/2014.09 
 lic: 1(in_use)/50(total) FLOATING license(s) on SERVER sunv40z-1.eecs.berkeley.
 lic:   
 Init: read install configuration file: /tools/synopsys/hspice/G-2012.06/hspice/meta.cfg
 **info** *pvaI* Module (bsim6): 4 unexpanded port, 0 init, 2615 behav, 63 contrib, 58/2705 expr(s)

 **info** *pvaI* Resizing DB size for v count = 1

 **info** *pvaI*        Has DIS (DT ST SB), 3 afCount

 **info** *pvaI*        0 const-G and 0 const-C, Has switch branch.

 **info** *pvaI* Module (bsim6): generated 7 flow node(s) during compilation.

 **info** *pvaI* #### Total 519 line-size(s), 58 expr(s), 63 contr(s), 0 init(s), 2615 behav(s), 4 port(s)

  **warning** (inv_dc.sp:13) Global net name, "gnd", in subckt pin list. The pin will be connected to the local net. Recommend to not use global net names in subckt pin lists.
 Loading pVA library inv_dc.pvadir/pvaRTL_linux.so...
1****** HSPICE -- G-2012.06 32-BIT (May 27 2012) RHEL32 ******                  
 ******  
 *sample netlist for bsim6

  ******  circuit name directory
 circuit number to circuit name directory
   number circuitname                     definition         multiplier
        0 main circuit
        1 xinv1.                          inverter           1.00 
        2 xinv1.xp1.                      bsim6(va)          1.00 
        3 xinv1.xn1.                      bsim6(va)          1.00 
 **info** *pvaI* Creating Verilog-A module 'bsim6' for XINV1.XN1

 **info** *pvaI* Creating Verilog-A module 'bsim6' for XINV1.XP1

  
      
 *****************************************************************
 ******  option summary
 ******
 runlvl  = 3         bypass  = 2         
  Opening plot unit= 15
 file=inv_dc.pa0                                                               

 ******  
 *sample netlist for bsim6

  ******  dc transfer curves tnom=  25.000 temp=  25.000 *****
x

        volt    voltage      voltage    
                    vi           vo     
    0.            0.           0.9999   
  1.0000e-02    1.000e-02      0.9998   
  2.0000e-02    2.000e-02      0.9998   
  3.0000e-02    3.000e-02      0.9997   
  4.0000e-02    4.000e-02      0.9996   
  5.0000e-02    5.000e-02      0.9995   
  6.0000e-02    6.000e-02      0.9994   
  7.0000e-02    7.000e-02      0.9992   
  8.0000e-02    8.000e-02      0.9989   
  9.0000e-02    9.000e-02      0.9986   
    0.10000       0.1000       0.9981   
    0.11000       0.1100       0.9976   
    0.12000       0.1200       0.9969   
    0.13000       0.1300       0.9960   
    0.14000       0.1400       0.9949   
    0.15000       0.1500       0.9937   
    0.16000       0.1600       0.9922   
    0.17000       0.1700       0.9904   
    0.18000       0.1800       0.9884   
    0.19000       0.1900       0.9860   
    0.20000       0.2000       0.9834   
    0.21000       0.2100       0.9804   
    0.22000       0.2200       0.9770   
    0.23000       0.2300       0.9733   
    0.24000       0.2400       0.9692   
    0.25000       0.2500       0.9646   
    0.26000       0.2600       0.9596   
    0.27000       0.2700       0.9542   
    0.28000       0.2800       0.9482   
    0.29000       0.2900       0.9417   
    0.30000       0.3000       0.9346   
    0.31000       0.3100       0.9269   
    0.32000       0.3200       0.9185   
    0.33000       0.3300       0.9093   
    0.34000       0.3400       0.8994   
    0.35000       0.3500       0.8885   
    0.36000       0.3600       0.8766   
    0.37000       0.3700       0.8635   
    0.38000       0.3800       0.8491   
    0.39000       0.3900       0.8331   
    0.40000       0.4000       0.8151   
    0.41000       0.4100       0.7946   
    0.42000       0.4200       0.7708   
    0.43000       0.4300       0.7423   
    0.44000       0.4400       0.7063   
    0.45000       0.4500       0.6550   
    0.46000       0.4600       0.5411   
    0.47000       0.4700       0.2749   
    0.48000       0.4800       0.2213   
    0.49000       0.4900       0.1930   
    0.50000       0.5000       0.1731   
    0.51000       0.5100       0.1575   
    0.52000       0.5200       0.1446   
    0.53000       0.5300       0.1337   
    0.54000       0.5400       0.1242   
    0.55000       0.5500       0.1157   
    0.56000       0.5600       0.1082   
    0.57000       0.5700       0.1014   
    0.58000       0.5800     9.518e-02  
    0.59000       0.5900     8.950e-02  
    0.60000       0.6000     8.426e-02  
    0.61000       0.6100     7.941e-02  
    0.62000       0.6200     7.491e-02  
    0.63000       0.6300     7.072e-02  
    0.64000       0.6400     6.680e-02  
    0.65000       0.6500     6.312e-02  
    0.66000       0.6600     5.967e-02  
    0.67000       0.6700     5.643e-02  
    0.68000       0.6800     5.337e-02  
    0.69000       0.6900     5.048e-02  
    0.70000       0.7000     4.775e-02  
    0.71000       0.7100     4.517e-02  
    0.72000       0.7200     4.273e-02  
    0.73000       0.7300     4.042e-02  
    0.74000       0.7400     3.822e-02  
    0.75000       0.7500     3.614e-02  
    0.76000       0.7600     3.417e-02  
    0.77000       0.7700     3.229e-02  
    0.78000       0.7800     3.051e-02  
    0.79000       0.7900     2.882e-02  
    0.80000       0.8000     2.722e-02  
    0.81000       0.8100     2.569e-02  
    0.82000       0.8200     2.425e-02  
    0.83000       0.8300     2.287e-02  
    0.84000       0.8400     2.157e-02  
    0.85000       0.8500     2.033e-02  
    0.86000       0.8600     1.916e-02  
    0.87000       0.8700     1.805e-02  
    0.88000       0.8800     1.699e-02  
    0.89000       0.8900     1.599e-02  
    0.90000       0.9000     1.504e-02  
    0.91000       0.9100     1.414e-02  
    0.92000       0.9200     1.328e-02  
    0.93000       0.9300     1.247e-02  
    0.94000       0.9400     1.170e-02  
    0.95000       0.9500     1.097e-02  
    0.96000       0.9600     1.028e-02  
    0.97000       0.9700     9.633e-03  
    0.98000       0.9800     9.022e-03  
    0.99000       0.9900     8.446e-03  
    1.00000       1.0000     7.904e-03  
y
-----------------------------------------------

          ***** job concluded
1****** HSPICE -- G-2012.06 32-BIT (May 27 2012) RHEL32 ******                  
 ******  
 *sample netlist for bsim6

  ******  job statistics summary tnom=  25.000 temp=  25.000 *****
  
  
 ******  Machine Information  ******
 CPU:
 model name	: Intel(R) Xeon(R) CPU           E5645  @ 2.40GHz
 cpu MHz	: 2394.056
  
 OS:
 Linux version 2.6.32-504.3.3.el6.x86_64 (mockbuild@x86-028.build.eng.bos.redhat.com) (gcc version 4.4.7 20120313 (Red Hat 4.4.7-9) (GCC) ) #1 SMP Fri Dec 12 16:05:43 EST 2014


  ******  HSPICE Threads Information  ******

  Command Line Threads Count :     1
  Available CPU Count        :    12
  Actual Threads Count       :     1


  ******  Circuit Statistics  ******
  # nodes       =      28 # elements   =       4
  # resistors   =       0 # capacitors =       0 # inductors   =       0
  # mutual_inds =       0 # vccs       =       0 # vcvs        =       0
  # cccs        =       0 # ccvs       =       0 # volt_srcs   =       2
  # curr_srcs   =       0 # diodes     =       0 # bjts        =       0
  # jfets       =       0 # mosfets    =       0 # U elements  =       0
  # T elements  =       0 # W elements =       0 # B elements  =       0
  # S elements  =       0 # P elements =       0 # va device   =       2
  # vector_srcs =       0 # N elements =       0


  ******  Runtime Statistics (seconds)  ******

  analysis           time    # points   tot. iter  conv.iter
  op point           0.00           1           0
  dc sweep           0.04         101         284
  readin             2.43
  errchk             0.05
  setup              0.00
  output             0.00


           peak memory used        117.42 megabytes
           total cpu time            2.52 seconds
           total elapsed time       11.23 seconds
           job started at     10:14:56 07/28/2015
           job ended   at     10:15:07 07/28/2015


 lic: Release hspice token(s) 
 lic: total license checkout elapse time:        2.50(s)
