 ****** HSPICE -- G-2012.06 32-BIT (May 27 2012) RHEL32 ******                  
  Copyright (C) 2012 Synopsys, Inc. All Rights Reserved.                        
  Unpublished-rights reserved under US copyright laws.
  This program is protected by law and is subject to the
  terms and conditions of the license agreement from Synopsys.
  Use of this program is your acceptance to be bound by the
  license agreement. HSPICE is the trademark of Synopsys, Inc.
  Input File: inverter_transient.sp                                             
  Command line options: -hdlpath ../code -i inverter_transient.sp -o inverter_transient
 lic:  
 lic: FLEXlm: v10.8 
 lic: USER:   sourabh              HOSTNAME: bwrcrdsl-3.eecs.berkeley.edu 
 lic: HOSTID:                      PID:      24193 
 lic: Using FLEXlm license file: 
 lic: 1701@sunv40z-1.eecs.berkeley.edu 
 lic: Checkout 1 hspice 
 lic: License/Maintenance for hspice will expire on 19-dec-2015/2014.09 
 lic: 1(in_use)/50(total) FLOATING license(s) on SERVER sunv40z-1.eecs.berkeley.
 lic:   
 Init: read install configuration file: /tools/synopsys/hspice/G-2012.06/hspice/meta.cfg
 **info** *pvaI* Module (bsim6): 4 unexpanded port, 0 init, 2615 behav, 63 contrib, 58/2705 expr(s)

 **info** *pvaI* Resizing DB size for v count = 1

 **info** *pvaI*        Has DIS (DT ST SB), 3 afCount

 **info** *pvaI*        0 const-G and 0 const-C, Has switch branch.

 **info** *pvaI* Module (bsim6): generated 7 flow node(s) during compilation.

 **info** *pvaI* #### Total 519 line-size(s), 58 expr(s), 63 contr(s), 0 init(s), 2615 behav(s), 4 port(s)

  **warning** (inverter_transient.sp:14) Global net name, "gnd", in subckt pin list. The pin will be connected to the local net. Recommend to not use global net names in subckt pin lists.
 Loading pVA library inverter_transient.pvadir/pvaRTL_linux.so...
1****** HSPICE -- G-2012.06 32-BIT (May 27 2012) RHEL32 ******                  
 ******  
 *sample netlist for bsim6

  ******  circuit name directory
 circuit number to circuit name directory
   number circuitname                     definition         multiplier
        0 main circuit
        1 xinv1.                          inverter           1.00 
        2 xinv2.                          inverter           1.00 
        3 xinv3.                          inverter           1.00 
        4 xinv4.                          inverter           1.00 
        5 xinv5.                          inverter           1.00 
        6 xinv1.xp1.                      bsim6(va)          1.00 
        7 xinv1.xn1.                      bsim6(va)          1.00 
        8 xinv2.xp1.                      bsim6(va)          1.00 
        9 xinv2.xn1.                      bsim6(va)          1.00 
       10 xinv3.xp1.                      bsim6(va)          1.00 
       11 xinv3.xn1.                      bsim6(va)          1.00 
       12 xinv4.xp1.                      bsim6(va)          1.00 
       13 xinv4.xn1.                      bsim6(va)          1.00 
       14 xinv5.xp1.                      bsim6(va)          1.00 
       15 xinv5.xn1.                      bsim6(va)          1.00 
 **info** *pvaI* Creating Verilog-A module 'bsim6' for XINV5.XN1

 **info** *pvaI* Creating Verilog-A module 'bsim6' for XINV5.XP1

  
      
 *****************************************************************
 ******  option summary
 ******
 runlvl  = 3         bypass  = 2         
  Opening plot unit= 15
 file=inverter_transient.pa0                                                   

1****** HSPICE -- G-2012.06 32-BIT (May 27 2012) RHEL32 ******                  
 ******  
 *sample netlist for bsim6

  ******  operating point information tnom=  25.000 temp=  25.000 *****
 ***** operating point status is voltage   simulation time is     0.     
     node    =voltage       node    =voltage       node    =voltage

 + 0:1       =   0.1731   0:2       =   0.9898   0:3       = 8.457e-03
 + 0:4       =   0.9998   0:supply  =   1.0000   0:vi      =   0.5000 
 + 0:vo      = 7.913e-03

 ******  
 *sample netlist for bsim6

  ******  transient analysis tnom=  25.000 temp=  25.000 *****
x

        time    voltage      voltage    
                    vi           vo     
    0.            0.5000     7.913e-03  
  1.0000e-08      0.5314     7.873e-03  
  2.0000e-08      0.5626     7.906e-03  
  3.0000e-08      0.5936     7.953e-03  
  4.0000e-08      0.6237     7.941e-03  
  5.0000e-08      0.6537     7.930e-03  
  6.0000e-08      0.6837     7.918e-03  
  7.0000e-08      0.7122     7.904e-03  
  8.0000e-08      0.7398     7.889e-03  
  9.0000e-08      0.7674     7.874e-03  
  1.0000e-07      0.7923     7.878e-03  
  1.1000e-07      0.8153     7.895e-03  
  1.2000e-07      0.8383     7.912e-03  
  1.3000e-07      0.8614     7.929e-03  
  1.4000e-07      0.8844     7.946e-03  
  1.5000e-07      0.9045     7.917e-03  
  1.6000e-07      0.9220     7.919e-03  
  1.7000e-07      0.9369     7.918e-03  
  1.8000e-07      0.9513     7.916e-03  
  1.9000e-07      0.9632     7.915e-03  
  2.0000e-07      0.9693     7.915e-03  
  2.1000e-07      0.9755     7.914e-03  
  2.2000e-07      0.9816     7.914e-03  
  2.3000e-07      0.9877     7.914e-03  
  2.4000e-07      0.9939     7.913e-03  
  2.5000e-07      1.0000     7.913e-03  
  2.6000e-07      0.9951     7.913e-03  
  2.7000e-07      0.9902     7.913e-03  
  2.8000e-07      0.9853     7.913e-03  
  2.9000e-07      0.9804     7.913e-03  
  3.0000e-07      0.9755     7.913e-03  
  3.1000e-07      0.9637     7.912e-03  
  3.2000e-07      0.9519     7.912e-03  
  3.3000e-07      0.9369     7.913e-03  
  3.4000e-07      0.9207     7.915e-03  
  3.5000e-07      0.9045     7.917e-03  
  3.6000e-07      0.8829     7.916e-03  
  3.7000e-07      0.8612     7.914e-03  
  3.8000e-07      0.8396     7.913e-03  
  3.9000e-07      0.8180     7.912e-03  
  4.0000e-07      0.7931     7.912e-03  
  4.1000e-07      0.7671     7.913e-03  
  4.2000e-07      0.7405     7.913e-03  
  4.3000e-07      0.7104     7.913e-03  
  4.4000e-07      0.6803     7.913e-03  
  4.5000e-07      0.6503     7.913e-03  
  4.6000e-07      0.6202     7.913e-03  
  4.7000e-07      0.5902     7.913e-03  
  4.8000e-07      0.5601     7.912e-03  
  4.9000e-07      0.5301     7.912e-03  
  5.0000e-07      0.5000     7.912e-03  
  5.1000e-07      0.4689     7.912e-03  
  5.2000e-07      0.4377     7.911e-03  
  5.3000e-07      0.4066     7.911e-03  
  5.4000e-07      0.3757     7.888e-03  
  5.5000e-07      0.3458     7.842e-03  
  5.6000e-07      0.3171     7.862e-03  
  5.7000e-07      0.2883     7.882e-03  
  5.8000e-07      0.2596     7.902e-03  
  5.9000e-07      0.2327     9.265e-03  
  6.0000e-07      0.2067     1.138e-02  
  6.1000e-07      0.1817     9.624e-03  
  6.2000e-07      0.1586     1.118e-03  
  6.3000e-07      0.1356    -8.912e-03  
  6.4000e-07      0.1154    -3.949e-02  
  6.5000e-07    9.549e-02   -6.368e-02  
  6.6000e-07    7.789e-02      0.4120   
  6.7000e-07    6.188e-02      0.8200   
  6.8000e-07    4.767e-02      0.9361   
  6.9000e-07    3.534e-02      0.9766   
  7.0000e-07    2.474e-02      0.9920   
  7.1000e-07    1.592e-02      0.9966   
  7.2000e-07    9.748e-03      0.9981   
  7.3000e-07    4.148e-03      0.9990   
  7.4000e-07    1.858e-03      0.9993   
  7.5000e-07      0.           0.9995   
  7.6000e-07    2.450e-03      0.9996   
  7.7000e-07    4.899e-03      0.9997   
  7.8000e-07    9.730e-03      0.9997   
  7.9000e-07    1.682e-02      0.9998   
  8.0000e-07    2.552e-02      0.9998   
  8.1000e-07    3.952e-02      0.9998   
  8.2000e-07    5.351e-02      0.9998   
  8.3000e-07    6.750e-02      0.9998   
  8.4000e-07    8.150e-02      0.9998   
  8.5000e-07    9.549e-02      0.9998   
  8.6000e-07      0.1182       0.9998   
  8.7000e-07      0.1410       0.9998   
  8.8000e-07      0.1637       0.9998   
  8.9000e-07      0.1864       0.9998   
  9.0000e-07      0.2092       0.9998   
  9.1000e-07      0.2321       0.9998   
  9.2000e-07      0.2598       0.9998   
  9.3000e-07      0.2874       0.9998   
  9.4000e-07      0.3169       0.9998   
  9.5000e-07      0.3474       0.9998   
  9.6000e-07      0.3779       0.9998   
  9.7000e-07      0.4085       0.9998   
  9.8000e-07      0.4390       0.9998   
  9.9000e-07      0.4695       0.9998   
  1.0000e-06      0.5000       0.9998   
  1.0100e-06      0.5313       0.9998   
  1.0200e-06      0.5626       0.9999   
  1.0300e-06      0.5937       0.9999   
  1.0400e-06      0.6240       1.0000   
  1.0500e-06      0.6540       1.0000   
  1.0600e-06      0.6840       1.0001   
  1.0700e-06      0.7126       0.9959   
  1.0800e-06      0.7407       0.9920   
  1.0900e-06      0.7675       0.9910   
  1.1000e-06      0.7936       1.0138   
  1.1100e-06      0.8185       1.0730   
  1.1200e-06      0.8420       1.0644   
  1.1300e-06      0.8642       0.8105   
  1.1400e-06      0.8852       0.2687   
  1.1500e-06      0.9045     9.983e-02  
  1.1600e-06      0.9221     5.979e-02  
  1.1700e-06      0.9376     4.058e-02  
  1.1800e-06      0.9520     2.676e-02  
  1.1900e-06      0.9641     2.031e-02  
  1.2000e-06      0.9746     1.539e-02  
  1.2100e-06      0.9822     1.313e-02  
  1.2200e-06      0.9898     1.086e-02  
  1.2300e-06      0.9953     9.352e-03  
  1.2400e-06      0.9976     8.951e-03  
  1.2500e-06      1.0000     8.551e-03  
  1.2600e-06      0.9979     8.379e-03  
  1.2700e-06      0.9957     8.208e-03  
  1.2800e-06      0.9900     8.112e-03  
  1.2900e-06      0.9835     8.033e-03  
  1.3000e-06      0.9731     7.988e-03  
  1.3100e-06      0.9594     7.972e-03  
  1.3200e-06      0.9457     7.956e-03  
  1.3300e-06      0.9319     7.940e-03  
  1.3400e-06      0.9182     7.924e-03  
  1.3500e-06      0.9045     7.908e-03  
  1.3600e-06      0.8822     7.908e-03  
  1.3700e-06      0.8599     7.909e-03  
  1.3800e-06      0.8376     7.909e-03  
  1.3900e-06      0.8152     7.909e-03  
  1.4000e-06      0.7929     7.910e-03  
  1.4100e-06      0.7673     7.911e-03  
  1.4200e-06      0.7402     7.912e-03  
  1.4300e-06      0.7125     7.912e-03  
  1.4400e-06      0.6821     7.912e-03  
  1.4500e-06      0.6518     7.912e-03  
  1.4600e-06      0.6214     7.912e-03  
  1.4700e-06      0.5911     7.912e-03  
  1.4800e-06      0.5607     7.912e-03  
  1.4900e-06      0.5304     7.912e-03  
  1.5000e-06      0.5000     7.912e-03  
  1.5100e-06      0.4688     7.912e-03  
  1.5200e-06      0.4377     7.912e-03  
  1.5300e-06      0.4065     7.911e-03  
  1.5400e-06      0.3757     7.888e-03  
  1.5500e-06      0.3459     7.851e-03  
  1.5600e-06      0.3170     7.855e-03  
  1.5700e-06      0.2882     7.858e-03  
  1.5800e-06      0.2594     7.862e-03  
  1.5900e-06      0.2328     9.117e-03  
  1.6000e-06      0.2066     1.066e-02  
  1.6100e-06      0.1819     8.723e-03  
  1.6200e-06      0.1588     3.137e-03  
  1.6300e-06      0.1356    -2.449e-03  
  1.6400e-06      0.1155    -3.275e-02  
  1.6500e-06    9.549e-02   -6.456e-02  
  1.6600e-06    7.786e-02    7.837e-02  
  1.6700e-06    6.191e-02      0.7619   
  1.6800e-06    4.762e-02      0.9190   
  1.6900e-06    3.528e-02      0.9694   
  1.7000e-06    2.489e-02      0.9882   
  1.7100e-06    1.617e-02      0.9961   
  1.7200e-06    9.319e-03      0.9979   
  1.7300e-06    4.968e-03      0.9989   
  1.7400e-06    1.985e-03      0.9993   
  1.7500e-06      0.           0.9996   
  1.7600e-06    1.586e-03      0.9996   
  1.7700e-06    4.722e-03      0.9997   
  1.7800e-06    1.064e-02      0.9997   
  1.7900e-06    2.027e-02      0.9998   
  1.8000e-06    2.991e-02      0.9998   
  1.8100e-06    3.955e-02      0.9998   
  1.8200e-06    4.919e-02      0.9998   
  1.8300e-06    6.288e-02      0.9998   
  1.8400e-06    7.919e-02      0.9998   
  1.8500e-06    9.549e-02      0.9998   
  1.8600e-06      0.1171       0.9998   
  1.8700e-06      0.1386       0.9998   
  1.8800e-06      0.1602       0.9998   
  1.8900e-06      0.1818       0.9998   
  1.9000e-06      0.2069       0.9998   
  1.9100e-06      0.2328       0.9998   
  1.9200e-06      0.2598       0.9998   
  1.9300e-06      0.2898       0.9998   
  1.9400e-06      0.3199       0.9998   
  1.9500e-06      0.3499       0.9998   
  1.9600e-06      0.3799       0.9998   
  1.9700e-06      0.4099       0.9998   
  1.9800e-06      0.4400       0.9998   
  1.9900e-06      0.4700       0.9998   
  2.0000e-06      0.5000       0.9998   
  2.0100e-06      0.5313       0.9998   
  2.0200e-06      0.5625       0.9999   
  2.0300e-06      0.5937       0.9999   
  2.0400e-06      0.6240       0.9999   
  2.0500e-06      0.6539       0.9998   
  2.0600e-06      0.6838       0.9997   
  2.0700e-06      0.7126       0.9964   
  2.0800e-06      0.7408       0.9917   
  2.0900e-06      0.7675       0.9925   
  2.1000e-06      0.7938       1.0026   
  2.1100e-06      0.8183       1.0680   
  2.1200e-06      0.8420       1.0693   
  2.1300e-06      0.8644       0.9078   
  2.1400e-06      0.8852       0.2673   
  2.1500e-06      0.9045     9.488e-02  
  2.1600e-06      0.9220     6.038e-02  
  2.1700e-06      0.9379     3.847e-02  
  2.1800e-06      0.9519     2.735e-02  
  2.1900e-06      0.9639     2.003e-02  
  2.2000e-06      0.9741     1.595e-02  
  2.2100e-06      0.9843     1.187e-02  
  2.2200e-06      0.9891     1.085e-02  
  2.2300e-06      0.9938     9.842e-03  
  2.2400e-06      0.9985     8.838e-03  
  2.2500e-06      1.0000     8.377e-03  
  2.2600e-06      0.9987     8.261e-03  
  2.2700e-06      0.9950     8.163e-03  
  2.2800e-06      0.9901     8.073e-03  
  2.2900e-06      0.9822     8.010e-03  
  2.3000e-06      0.9693     7.991e-03  
  2.3100e-06      0.9563     7.972e-03  
  2.3200e-06      0.9434     7.953e-03  
  2.3300e-06      0.9304     7.933e-03  
  2.3400e-06      0.9175     7.914e-03  
  2.3500e-06      0.9045     7.895e-03  
  2.3600e-06      0.8820     7.897e-03  
  2.3700e-06      0.8595     7.899e-03  
  2.3800e-06      0.8370     7.902e-03  
  2.3900e-06      0.8145     7.904e-03  
  2.4000e-06      0.7919     7.906e-03  
  2.4100e-06      0.7675     7.908e-03  
  2.4200e-06      0.7402     7.910e-03  
  2.4300e-06      0.7128     7.912e-03  
  2.4400e-06      0.6825     7.912e-03  
  2.4500e-06      0.6521     7.912e-03  
  2.4600e-06      0.6217     7.912e-03  
  2.4700e-06      0.5913     7.912e-03  
  2.4800e-06      0.5608     7.912e-03  
  2.4900e-06      0.5304     7.912e-03  
  2.5000e-06      0.5000     7.912e-03  
  2.5100e-06      0.4688     7.912e-03  
  2.5200e-06      0.4377     7.912e-03  
  2.5300e-06      0.4065     7.911e-03  
  2.5400e-06      0.3757     7.888e-03  
  2.5500e-06      0.3459     7.854e-03  
  2.5600e-06      0.3170     7.853e-03  
  2.5700e-06      0.2882     7.852e-03  
  2.5800e-06      0.2593     7.852e-03  
  2.5900e-06      0.2328     9.042e-03  
  2.6000e-06      0.2066     1.042e-02  
  2.6100e-06      0.1820     8.509e-03  
  2.6200e-06      0.1589     3.537e-03  
  2.6300e-06      0.1357    -1.434e-03  
  2.6400e-06      0.1154    -3.114e-02  
  2.6500e-06    9.549e-02   -6.413e-02  
  2.6600e-06    7.786e-02    5.455e-02  
  2.6700e-06    6.187e-02      0.7534   
  2.6800e-06    4.762e-02      0.9144   
  2.6900e-06    3.527e-02      0.9679   
  2.7000e-06    2.487e-02      0.9877   
  2.7100e-06    1.620e-02      0.9958   
  2.7200e-06    9.212e-03      0.9979   
  2.7300e-06    5.003e-03      0.9988   
  2.7400e-06    1.780e-03      0.9993   
  2.7500e-06      0.           0.9995   
  2.7600e-06    1.287e-03      0.9996   
  2.7700e-06    5.212e-03      0.9997   
  2.7800e-06    9.137e-03      0.9997   
  2.7900e-06    1.931e-02      0.9998   
  2.8000e-06    3.046e-02      0.9998   
  2.8100e-06    4.161e-02      0.9998   
  2.8200e-06    5.275e-02      0.9998   
  2.8300e-06    6.390e-02      0.9998   
  2.8400e-06    7.828e-02      0.9998   
  2.8500e-06    9.549e-02      0.9998   
  2.8600e-06      0.1158       0.9998   
  2.8700e-06      0.1362       0.9998   
  2.8800e-06      0.1584       0.9998   
  2.8900e-06      0.1823       0.9998   
  2.9000e-06      0.2061       0.9998   
  2.9100e-06      0.2350       0.9998   
  2.9200e-06      0.2640       0.9998   
  2.9300e-06      0.2930       0.9998   
  2.9400e-06      0.3219       0.9998   
  2.9500e-06      0.3509       0.9998   
  2.9600e-06      0.3798       0.9998   
  2.9700e-06      0.4088       0.9998   
  2.9800e-06      0.4377       0.9998   
  2.9900e-06      0.4687       0.9998   
  3.0000e-06      0.5000       0.9998   
  3.0100e-06      0.5314       0.9999   
  3.0200e-06      0.5625       0.9999   
  3.0300e-06      0.5934       0.9999   
  3.0400e-06      0.6242       1.0000   
  3.0500e-06      0.6541       1.0000   
  3.0600e-06      0.6837       1.0000   
  3.0700e-06      0.7127       0.9984   
  3.0800e-06      0.7405       0.9937   
  3.0900e-06      0.7676       0.9921   
  3.1000e-06      0.7934       0.9971   
  3.1100e-06      0.8184       1.0159   
  3.1200e-06      0.8417       1.0655   
  3.1300e-06      0.8642       1.0335   
  3.1400e-06      0.8852       0.8242   
  3.1500e-06      0.9045       0.1399   
  3.1600e-06      0.9220     8.144e-02  
  3.1700e-06      0.9379     4.998e-02  
  3.1800e-06      0.9517     3.398e-02  
  3.1900e-06      0.9644     2.352e-02  
  3.2000e-06      0.9745     1.767e-02  
  3.2100e-06      0.9834     1.419e-02  
  3.2200e-06      0.9899     1.170e-02  
  3.2300e-06      0.9933     1.059e-02  
  3.2400e-06      0.9966     9.476e-03  
  3.2500e-06      1.0000     8.365e-03  
  3.2600e-06      0.9981     8.290e-03  
  3.2700e-06      0.9958     8.214e-03  
  3.2800e-06      0.9899     8.124e-03  
  3.2900e-06      0.9839     8.034e-03  
  3.3000e-06      0.9718     8.001e-03  
  3.3100e-06      0.9583     7.980e-03  
  3.3200e-06      0.9449     7.960e-03  
  3.3300e-06      0.9314     7.939e-03  
  3.3400e-06      0.9180     7.918e-03  
  3.3500e-06      0.9045     7.898e-03  
  3.3600e-06      0.8821     7.900e-03  
  3.3700e-06      0.8598     7.902e-03  
  3.3800e-06      0.8374     7.904e-03  
  3.3900e-06      0.8150     7.906e-03  
  3.4000e-06      0.7927     7.908e-03  
  3.4100e-06      0.7673     7.910e-03  
  3.4200e-06      0.7402     7.911e-03  
  3.4300e-06      0.7126     7.912e-03  
  3.4400e-06      0.6822     7.912e-03  
  3.4500e-06      0.6518     7.912e-03  
  3.4600e-06      0.6215     7.912e-03  
  3.4700e-06      0.5911     7.912e-03  
  3.4800e-06      0.5607     7.912e-03  
  3.4900e-06      0.5304     7.912e-03  
  3.5000e-06      0.5000     7.912e-03  
  3.5100e-06      0.4688     7.912e-03  
  3.5200e-06      0.4377     7.912e-03  
  3.5300e-06      0.4065     7.911e-03  
  3.5400e-06      0.3757     7.888e-03  
  3.5500e-06      0.3459     7.852e-03  
  3.5600e-06      0.3170     7.854e-03  
  3.5700e-06      0.2882     7.857e-03  
  3.5800e-06      0.2594     7.860e-03  
  3.5900e-06      0.2328     9.099e-03  
  3.6000e-06      0.2066     1.060e-02  
  3.6100e-06      0.1820     8.672e-03  
  3.6200e-06      0.1588     3.245e-03  
  3.6300e-06      0.1356    -2.182e-03  
  3.6400e-06      0.1154    -3.237e-02  
  3.6500e-06    9.549e-02   -6.448e-02  
  3.6600e-06    7.786e-02    7.107e-02  
  3.6700e-06    6.190e-02      0.7601   
  3.6800e-06    4.762e-02      0.9176   
  3.6900e-06    3.527e-02      0.9692   
  3.7000e-06    2.488e-02      0.9881   
  3.7100e-06    1.621e-02      0.9959   
  3.7200e-06    9.239e-03      0.9980   
  3.7300e-06    5.004e-03      0.9989   
  3.7400e-06    1.845e-03      0.9993   
  3.7500e-06      0.           0.9995   
  3.7600e-06    1.420e-03      0.9996   
  3.7700e-06    5.207e-03      0.9997   
  3.7800e-06    8.994e-03      0.9997   
  3.7900e-06    1.949e-02      0.9998   
  3.8000e-06    3.045e-02      0.9998   
  3.8100e-06    4.141e-02      0.9998   
  3.8200e-06    5.237e-02      0.9998   
  3.8300e-06    6.332e-02      0.9998   
