 ****** HSPICE -- G-2012.06 32-BIT (May 27 2012) RHEL32 ******                  
  Copyright (C) 2012 Synopsys, Inc. All Rights Reserved.                        
  Unpublished-rights reserved under US copyright laws.
  This program is protected by law and is subject to the
  terms and conditions of the license agreement from Synopsys.
  Use of this program is your acceptance to be bound by the
  license agreement. HSPICE is the trademark of Synopsys, Inc.
  Input File: idvdpmos.sp                                                       
  Command line options: -hdlpath ../code -i idvdpmos.sp -o idvdpmos
 lic:  
 lic: FLEXlm: v10.8 
 lic: USER:   sourabh              HOSTNAME: bwrcr720-1.eecs.berkeley.edu 
 lic: HOSTID:                      PID:      30430 
 lic: Using FLEXlm license file: 
 lic: 1701@sunv40z-1.eecs.berkeley.edu 
 lic: Checkout 1 hspice 
 lic: License/Maintenance for hspice will expire on 18-nov-2014/2013.03 
 lic: 1(in_use)/50(total) FLOATING license(s) on SERVER sunv40z-1.eecs.berkeley.
 lic:   
 Init: read install configuration file: /tools/synopsys/hspice/G-2012.06/hspice/meta.cfg
 **info** *pvaI* Module (bsimcmg): 4 unexpanded port, 0 init, 2326 behav, 66 contrib, 63/3580 expr(s)

 **info** *pvaI* Resizing DB size for v count = 1

 **info** *pvaI* Resizing DB size for v count = 2

 **info** *pvaI*        Has DIS (SB), 5 afCount

 **info** *pvaI*        0 const-G and 0 const-C, Has switch branch.

 **info** *pvaI* Module (bsimcmg): generated 3 flow node(s) during compilation.

 **info** *pvaI* #### Total 697 line-size(s), 63 expr(s), 66 contr(s), 0 init(s), 2326 behav(s), 4 port(s)

 Loading pVA library idvdpmos.pvadir/pvaRTL_linux.so...
1****** HSPICE -- G-2012.06 32-BIT (May 27 2012) RHEL32 ******                  
 ******  
 *sample netlist for bsim-mg

  ******  circuit name directory
 circuit number to circuit name directory
   number circuitname                     definition         multiplier
        0 main circuit
        1 x1.                             bsimcmg(va)        1.00 
 **info** *pvaI* Creating Verilog-A module 'bsimcmg' for X1

  
      
 *****************************************************************
 ******  option summary
 ******
 runlvl  = 3         bypass  = 2         
  Opening plot unit= 15
 file=idvdpmos.pa0                                                             

 ******  
 *sample netlist for bsim-mg

  ******  dc transfer curves tnom=  25.000 temp=  27.000 *****

   *** source        0:vgs =    0.            ***

x

        volt    param        param      
                    ids         -gds    
    0.            0.           0.       
 -1.0000e-02    1.126e-12      0.       
 -2.0000e-02    1.897e-12    1.126e-10  
 -3.0000e-02    2.423e-12    7.709e-11  
 -4.0000e-02    2.771e-12    5.258e-11  
 -5.0000e-02    3.013e-12    3.482e-11  
 -6.0000e-02    3.176e-12    2.416e-11  
 -7.0000e-02    3.297e-12    1.634e-11  
 -8.0000e-02    3.382e-12    1.208e-11  
 -9.0000e-02    3.467e-12    8.527e-12  
   -0.10000     3.553e-12    8.527e-12  
   -0.11000     3.581e-12    8.527e-12  
   -0.12000     3.638e-12    2.842e-12  
   -0.13000     3.723e-12    5.684e-12  
   -0.14000     3.723e-12    8.527e-12  
   -0.15000     3.809e-12      0.       
   -0.16000     3.837e-12    8.527e-12  
   -0.17000     3.865e-12    2.842e-12  
   -0.18000     3.922e-12    2.842e-12  
   -0.19000     3.979e-12    5.684e-12  
   -0.20000     3.979e-12    5.684e-12  
   -0.21000     4.036e-12      0.       
   -0.22000     4.064e-12    5.684e-12  
   -0.23000     4.093e-12    2.842e-12  
   -0.24000     4.178e-12    2.842e-12  
   -0.25000     4.178e-12    8.527e-12  
   -0.26000     4.206e-12      0.       
   -0.27000     4.263e-12    2.842e-12  
   -0.28000     4.263e-12    5.684e-12  
   -0.29000     4.377e-12      0.       
   -0.30000     4.377e-12    1.137e-11  
   -0.31000     4.434e-12      0.       
   -0.32000     4.491e-12    5.684e-12  
   -0.33000     4.547e-12    5.684e-12  
   -0.34000     4.547e-12    5.684e-12  
   -0.35000     4.547e-12      0.       
   -0.36000     4.604e-12      0.       
   -0.37000     4.718e-12    5.684e-12  
   -0.38000     4.775e-12    1.137e-11  
   -0.39000     4.775e-12    5.684e-12  
   -0.40000     4.832e-12      0.       
   -0.41000     4.832e-12    5.684e-12  
   -0.42000     4.889e-12      0.       
   -0.43000     4.945e-12    5.684e-12  
   -0.44000     5.002e-12    5.684e-12  
   -0.45000     5.059e-12    5.684e-12  
   -0.46000     5.116e-12    5.684e-12  
   -0.47000     5.116e-12    5.684e-12  
   -0.48000     5.173e-12      0.       
   -0.49000     5.286e-12    5.684e-12  
   -0.50000     5.286e-12    1.137e-11  
   -0.51000     5.343e-12      0.       
   -0.52000     5.457e-12    5.684e-12  
   -0.53000     5.571e-12    1.137e-11  
   -0.54000     5.571e-12    1.137e-11  
   -0.55000     5.457e-12      0.       
   -0.56000     5.571e-12   -1.137e-11  
   -0.57000     5.571e-12    1.137e-11  
   -0.58000     5.798e-12      0.       
   -0.59000     5.798e-12    2.274e-11  
   -0.60000     5.798e-12      0.       
   -0.61000     5.912e-12      0.       
   -0.62000     5.912e-12    1.137e-11  
   -0.63000     6.139e-12      0.       
   -0.64000     6.025e-12    2.274e-11  
   -0.65000     6.139e-12   -1.137e-11  
   -0.66000     6.139e-12    1.137e-11  
   -0.67000     6.139e-12      0.       
   -0.68000     6.253e-12      0.       
   -0.69000     6.253e-12    1.137e-11  
   -0.70000     6.480e-12      0.       
   -0.71000     6.480e-12    2.274e-11  
   -0.72000     6.480e-12      0.       
   -0.73000     6.594e-12      0.       
   -0.74000     6.708e-12    1.137e-11  
   -0.75000     6.821e-12    1.137e-11  
   -0.76000     6.821e-12    1.137e-11  
   -0.77000     6.708e-12      0.       
   -0.78000     6.821e-12   -1.137e-11  
   -0.79000     6.935e-12    1.137e-11  
   -0.80000     7.049e-12    1.137e-11  
   -0.81000     7.049e-12    1.137e-11  
   -0.82000     7.049e-12      0.       
   -0.83000     7.276e-12      0.       
   -0.84000     7.276e-12    2.274e-11  
   -0.85000     7.503e-12      0.       
   -0.86000     7.617e-12    2.274e-11  
   -0.87000     7.617e-12    1.137e-11  
   -0.88000     7.958e-12      0.       
   -0.89000     8.185e-12    3.411e-11  
   -0.90000     8.299e-12    2.274e-11  
   -0.91000     8.527e-12    1.137e-11  
   -0.92000     8.754e-12    2.274e-11  
   -0.93000     9.095e-12    2.274e-11  
   -0.94000     9.209e-12    3.411e-11  
   -0.95000     9.550e-12    1.137e-11  
   -0.96000     9.891e-12    3.411e-11  
   -0.97000     1.035e-11    3.411e-11  
   -0.98000     1.057e-11    4.547e-11  
   -0.99000     1.114e-11    2.274e-11  
   -1.00000     1.148e-11    5.684e-11  
y
-----------------------------------------------
 ******  
 *sample netlist for bsim-mg

  ******  dc transfer curves tnom=  25.000 temp=  27.000 *****

   *** source        0:vgs =   -0.1000        ***

x

        volt    param        param      
                    ids         -gds    
    0.         -3.972e-15      0.       
 -1.0000e-02    4.089e-11   -1.149e-09  
 -2.0000e-02    6.891e-11    4.089e-09  
 -3.0000e-02    8.777e-11    2.803e-09  
 -4.0000e-02    1.004e-10    1.886e-09  
 -5.0000e-02    1.090e-10    1.267e-09  
 -6.0000e-02    1.151e-10    8.590e-10  
 -7.0000e-02    1.195e-10    6.033e-10  
 -8.0000e-02    1.228e-10    4.391e-10  
 -9.0000e-02    1.254e-10    3.325e-10  
   -0.10000     1.277e-10    2.657e-10  
   -0.11000     1.296e-10    2.231e-10  
   -0.12000     1.313e-10    1.933e-10  
   -0.13000     1.330e-10    1.734e-10  
   -0.14000     1.344e-10    1.620e-10  
   -0.15000     1.359e-10    1.450e-10  
   -0.16000     1.373e-10    1.450e-10  
   -0.17000     1.387e-10    1.421e-10  
   -0.18000     1.399e-10    1.393e-10  
   -0.19000     1.413e-10    1.279e-10  
   -0.20000     1.426e-10    1.336e-10  
   -0.21000     1.439e-10    1.279e-10  
   -0.22000     1.451e-10    1.307e-10  
   -0.23000     1.464e-10    1.251e-10  
   -0.24000     1.477e-10    1.307e-10  
   -0.25000     1.490e-10    1.307e-10  
   -0.26000     1.504e-10    1.279e-10  
   -0.27000     1.517e-10    1.336e-10  
   -0.28000     1.529e-10    1.307e-10  
   -0.29000     1.542e-10    1.251e-10  
   -0.30000     1.556e-10    1.307e-10  
   -0.31000     1.569e-10    1.364e-10  
   -0.32000     1.582e-10    1.364e-10  
   -0.33000     1.596e-10    1.251e-10  
   -0.34000     1.609e-10    1.421e-10  
   -0.35000     1.623e-10    1.307e-10  
   -0.36000     1.637e-10    1.364e-10  
   -0.37000     1.650e-10    1.421e-10  
   -0.38000     1.664e-10    1.307e-10  
   -0.39000     1.678e-10    1.421e-10  
   -0.40000     1.692e-10    1.364e-10  
   -0.41000     1.706e-10    1.421e-10  
   -0.42000     1.720e-10    1.421e-10  
   -0.43000     1.735e-10    1.364e-10  
   -0.44000     1.749e-10    1.478e-10  
   -0.45000     1.763e-10    1.364e-10  
   -0.46000     1.778e-10    1.478e-10  
   -0.47000     1.793e-10    1.478e-10  
   -0.48000     1.808e-10    1.478e-10  
   -0.49000     1.822e-10    1.478e-10  
   -0.50000     1.837e-10    1.421e-10  
   -0.51000     1.852e-10    1.478e-10  
   -0.52000     1.867e-10    1.535e-10  
   -0.53000     1.882e-10    1.478e-10  
   -0.54000     1.897e-10    1.478e-10  
   -0.55000     1.912e-10    1.592e-10  
   -0.56000     1.929e-10    1.478e-10  
   -0.57000     1.944e-10    1.705e-10  
   -0.58000     1.960e-10    1.478e-10  
   -0.59000     1.977e-10    1.592e-10  
   -0.60000     1.991e-10    1.705e-10  
   -0.61000     2.009e-10    1.364e-10  
   -0.62000     2.025e-10    1.819e-10  
   -0.63000     2.041e-10    1.592e-10  
   -0.64000     2.058e-10    1.592e-10  
   -0.65000     2.073e-10    1.705e-10  
   -0.66000     2.092e-10    1.478e-10  
   -0.67000     2.105e-10    1.933e-10  
   -0.68000     2.124e-10    1.364e-10  
   -0.69000     2.141e-10    1.819e-10  
   -0.70000     2.157e-10    1.705e-10  
   -0.71000     2.176e-10    1.592e-10  
   -0.72000     2.193e-10    1.933e-10  
   -0.73000     2.210e-10    1.705e-10  
   -0.74000     2.227e-10    1.705e-10  
   -0.75000     2.246e-10    1.705e-10  
   -0.76000     2.262e-10    1.933e-10  
   -0.77000     2.281e-10    1.592e-10  
   -0.78000     2.298e-10    1.819e-10  
   -0.79000     2.317e-10    1.705e-10  
   -0.80000     2.335e-10    1.933e-10  
   -0.81000     2.354e-10    1.819e-10  
   -0.82000     2.373e-10    1.933e-10  
   -0.83000     2.392e-10    1.819e-10  
   -0.84000     2.409e-10    1.933e-10  
   -0.85000     2.428e-10    1.705e-10  
   -0.86000     2.449e-10    1.933e-10  
   -0.87000     2.468e-10    2.046e-10  
   -0.88000     2.486e-10    1.933e-10  
   -0.89000     2.506e-10    1.819e-10  
   -0.90000     2.526e-10    1.933e-10  
   -0.91000     2.545e-10    2.046e-10  
   -0.92000     2.566e-10    1.933e-10  
   -0.93000     2.586e-10    2.046e-10  
   -0.94000     2.607e-10    2.046e-10  
   -0.95000     2.628e-10    2.046e-10  
   -0.96000     2.649e-10    2.160e-10  
   -0.97000     2.671e-10    2.046e-10  
   -0.98000     2.692e-10    2.160e-10  
   -0.99000     2.716e-10    2.160e-10  
   -1.00000     2.736e-10    2.387e-10  
y
-----------------------------------------------
 ******  
 *sample netlist for bsim-mg

  ******  dc transfer curves tnom=  25.000 temp=  27.000 *****

   *** source        0:vgs =   -0.2000        ***

x

        volt    param        param      
                    ids         -gds    
    0.         -1.296e-14      0.       
 -1.0000e-02    1.479e-09   -2.737e-08  
 -2.0000e-02    2.494e-09    1.479e-07  
 -3.0000e-02    3.176e-09    1.014e-07  
 -4.0000e-02    3.633e-09    6.826e-08  
 -5.0000e-02    3.944e-09    4.574e-08  
 -6.0000e-02    4.159e-09    3.101e-08  
 -7.0000e-02    4.315e-09    2.158e-08  
 -8.0000e-02    4.433e-09    1.559e-08  
 -9.0000e-02    4.526e-09    1.176e-08  
   -0.10000     4.603e-09    9.304e-09  
   -0.11000     4.669e-09    7.682e-09  
   -0.12000     4.727e-09    6.597e-09  
   -0.13000     4.781e-09    5.858e-09  
   -0.14000     4.830e-09    5.339e-09  
   -0.15000     4.878e-09    4.977e-09  
   -0.16000     4.923e-09    4.712e-09  
   -0.17000     4.967e-09    4.522e-09  
   -0.18000     5.009e-09    4.385e-09  
   -0.19000     5.052e-09    4.277e-09  
   -0.20000     5.093e-09    4.209e-09  
   -0.21000     5.134e-09    4.152e-09  
   -0.22000     5.175e-09    4.113e-09  
   -0.23000     5.216e-09    4.093e-09  
   -0.24000     5.256e-09    4.067e-09  
   -0.25000     5.297e-09    4.056e-09  
   -0.26000     5.337e-09    4.056e-09  
   -0.27000     5.378e-09    4.050e-09  
   -0.28000     5.419e-09    4.053e-09  
   -0.29000     5.459e-09    4.070e-09  
   -0.30000     5.500e-09    4.076e-09  
   -0.31000     5.541e-09    4.081e-09  
   -0.32000     5.582e-09    4.087e-09  
   -0.33000     5.624e-09    4.115e-09  
   -0.34000     5.665e-09    4.127e-09  
   -0.35000     5.707e-09    4.144e-09  
   -0.36000     5.748e-09    4.155e-09  
   -0.37000     5.790e-09    4.184e-09  
   -0.38000     5.832e-09    4.189e-09  
   -0.39000     5.875e-09    4.223e-09  
   -0.40000     5.917e-09    4.235e-09  
   -0.41000     5.960e-09    4.252e-09  
   -0.42000     6.003e-09    4.280e-09  
   -0.43000     6.046e-09    4.297e-09  
   -0.44000     6.090e-09    4.320e-09  
   -0.45000     6.133e-09    4.354e-09  
   -0.46000     6.177e-09    4.360e-09  
   -0.47000     6.222e-09    4.388e-09  
   -0.48000     6.266e-09    4.417e-09  
   -0.49000     6.310e-09    4.428e-09  
   -0.50000     6.355e-09    4.468e-09  
   -0.51000     6.400e-09    4.479e-09  
   -0.52000     6.446e-09    4.519e-09  
   -0.53000     6.491e-09    4.513e-09  
   -0.54000     6.537e-09    4.559e-09  
   -0.55000     6.583e-09    4.593e-09  
   -0.56000     6.629e-09    4.593e-09  
   -0.57000     6.676e-09    4.638e-09  
   -0.58000     6.723e-09    4.650e-09  
   -0.59000     6.770e-09    4.695e-09  
   -0.60000     6.817e-09    4.707e-09  
   -0.61000     6.865e-09    4.729e-09  
   -0.62000     6.913e-09    4.752e-09  
   -0.63000     6.961e-09    4.786e-09  
   -0.64000     7.009e-09    4.820e-09  
   -0.65000     7.058e-09    4.832e-09  
   -0.66000     7.107e-09    4.866e-09  
   -0.67000     7.156e-09    4.889e-09  
   -0.68000     7.205e-09    4.923e-09  
   -0.69000     7.255e-09    4.945e-09  
   -0.70000     7.305e-09    4.979e-09  
   -0.71000     7.355e-09    4.991e-09  
   -0.72000     7.406e-09    5.036e-09  
   -0.73000     7.457e-09    5.059e-09  
   -0.74000     7.508e-09    5.070e-09  
   -0.75000     7.559e-09    5.116e-09  
   -0.76000     7.611e-09    5.139e-09  
   -0.77000     7.663e-09    5.173e-09  
   -0.78000     7.715e-09    5.184e-09  
   -0.79000     7.768e-09    5.230e-09  
   -0.80000     7.821e-09    5.252e-09  
   -0.81000     7.874e-09    5.286e-09  
   -0.82000     7.927e-09    5.309e-09  
   -0.83000     7.981e-09    5.355e-09  
   -0.84000     8.035e-09    5.355e-09  
   -0.85000     8.089e-09    5.400e-09  
   -0.86000     8.144e-09    5.423e-09  
   -0.87000     8.198e-09    5.468e-09  
   -0.88000     8.254e-09    5.468e-09  
   -0.89000     8.309e-09    5.548e-09  
   -0.90000     8.365e-09    5.525e-09  
   -0.91000     8.421e-09    5.593e-09  
   -0.92000     8.477e-09    5.605e-09  
   -0.93000     8.534e-09    5.639e-09  
   -0.94000     8.591e-09    5.662e-09  
   -0.95000     8.648e-09    5.707e-09  
   -0.96000     8.706e-09    5.730e-09  
   -0.97000     8.764e-09    5.753e-09  
   -0.98000     8.822e-09    5.809e-09  
   -0.99000     8.881e-09    5.832e-09  
   -1.00000     8.940e-09    5.844e-09  
y
-----------------------------------------------
 ******  
 *sample netlist for bsim-mg

  ******  dc transfer curves tnom=  25.000 temp=  27.000 *****

   *** source        0:vgs =   -0.3000        ***

x

        volt    param        param      
                    ids         -gds    
    0.         -4.086e-14      0.       
 -1.0000e-02    4.891e-08   -8.940e-07  
 -2.0000e-02    8.328e-08    4.891e-06  
 -3.0000e-02    1.068e-07    3.437e-06  
 -4.0000e-02    1.228e-07    2.355e-06  
 -5.0000e-02    1.337e-07    1.597e-06  
 -6.0000e-02    1.412e-07    1.088e-06  
 -7.0000e-02    1.467e-07    7.566e-07  
 -8.0000e-02    1.507e-07    5.418e-07  
 -9.0000e-02    1.538e-07    4.027e-07  
   -0.10000     1.563e-07    3.116e-07  
   -0.11000     1.584e-07    2.510e-07  
   -0.12000     1.602e-07    2.098e-07  
   -0.13000     1.618e-07    1.812e-07  
   -0.14000     1.633e-07    1.610e-07  
   -0.15000     1.647e-07    1.464e-07  
   -0.16000     1.659e-07    1.356e-07  
   -0.17000     1.671e-07    1.277e-07  
   -0.18000     1.683e-07    1.216e-07  
   -0.19000     1.695e-07    1.170e-07  
   -0.20000     1.706e-07    1.134e-07  
   -0.21000     1.716e-07    1.107e-07  
   -0.22000     1.727e-07    1.085e-07  
   -0.23000     1.738e-07    1.068e-07  
   -0.24000     1.748e-07    1.054e-07  
   -0.25000     1.758e-07    1.043e-07  
   -0.26000     1.769e-07    1.035e-07  
   -0.27000     1.779e-07    1.028e-07  
   -0.28000     1.789e-07    1.023e-07  
   -0.29000     1.799e-07    1.019e-07  
   -0.30000     1.809e-07    1.016e-07  
   -0.31000     1.820e-07    1.014e-07  
   -0.32000     1.830e-07    1.013e-07  
   -0.33000     1.840e-07    1.012e-07  
   -0.34000     1.850e-07    1.012e-07  
   -0.35000     1.860e-07    1.012e-07  
   -0.36000     1.870e-07    1.012e-07  
   -0.37000     1.880e-07    1.013e-07  
   -0.38000     1.890e-07    1.014e-07  
   -0.39000     1.901e-07    1.015e-07  
   -0.40000     1.911e-07    1.017e-07  
   -0.41000     1.921e-07    1.018e-07  
   -0.42000     1.931e-07    1.020e-07  
   -0.43000     1.941e-07    1.022e-07  
   -0.44000     1.952e-07    1.024e-07  
   -0.45000     1.962e-07    1.026e-07  
   -0.46000     1.972e-07    1.028e-07  
   -0.47000     1.983e-07    1.031e-07  
   -0.48000     1.993e-07    1.033e-07  
   -0.49000     2.003e-07    1.036e-07  
   -0.50000     2.014e-07    1.038e-07  
   -0.51000     2.024e-07    1.041e-07  
   -0.52000     2.035e-07    1.044e-07  
   -0.53000     2.045e-07    1.047e-07  
   -0.54000     2.056e-07    1.049e-07  
   -0.55000     2.066e-07    1.052e-07  
   -0.56000     2.077e-07    1.055e-07  
   -0.57000     2.087e-07    1.058e-07  
   -0.58000     2.098e-07    1.061e-07  
   -0.59000     2.109e-07    1.064e-07  
   -0.60000     2.119e-07    1.067e-07  
   -0.61000     2.130e-07    1.070e-07  
   -0.62000     2.141e-07    1.073e-07  
   -0.63000     2.152e-07    1.076e-07  
   -0.64000     2.163e-07    1.079e-07  
   -0.65000     2.173e-07    1.083e-07  
   -0.66000     2.184e-07    1.086e-07  
   -0.67000     2.195e-07    1.089e-07  
   -0.68000     2.206e-07    1.092e-07  
   -0.69000     2.217e-07    1.095e-07  
   -0.70000     2.228e-07    1.098e-07  
   -0.71000     2.239e-07    1.102e-07  
   -0.72000     2.250e-07    1.105e-07  
   -0.73000     2.261e-07    1.108e-07  
   -0.74000     2.273e-07    1.112e-07  
   -0.75000     2.284e-07    1.115e-07  
   -0.76000     2.295e-07    1.118e-07  
   -0.77000     2.306e-07    1.122e-07  
   -0.78000     2.318e-07    1.125e-07  
   -0.79000     2.329e-07    1.129e-07  
   -0.80000     2.340e-07    1.132e-07  
   -0.81000     2.352e-07    1.136e-07  
   -0.82000     2.363e-07    1.139e-07  
   -0.83000     2.375e-07    1.142e-07  
   -0.84000     2.386e-07    1.146e-07  
   -0.85000     2.398e-07    1.149e-07  
   -0.86000     2.409e-07    1.153e-07  
   -0.87000     2.421e-07    1.156e-07  
   -0.88000     2.432e-07    1.160e-07  
   -0.89000     2.444e-07    1.163e-07  
   -0.90000     2.456e-07    1.167e-07  
   -0.91000     2.467e-07    1.170e-07  
   -0.92000     2.479e-07    1.174e-07  
   -0.93000     2.491e-07    1.177e-07  
   -0.94000     2.503e-07    1.181e-07  
   -0.95000     2.515e-07    1.184e-07  
   -0.96000     2.527e-07    1.188e-07  
   -0.97000     2.539e-07    1.191e-07  
   -0.98000     2.551e-07    1.195e-07  
   -0.99000     2.563e-07    1.198e-07  
